time	V(n002)	V(n013)
0.000000000000000e+00	-8.019831e-03	-1.670383e-07
4.224673717811347e-07	-8.199552e-03	2.645970e-04
8.449347435622695e-07	-8.731307e-03	5.293303e-04
1.267402115343404e-06	-9.615095e-03	7.940330e-04
1.689869487124539e-06	-1.085092e-02	1.058705e-03
2.112336858905674e-06	-1.243877e-02	1.323346e-03
2.534804230686808e-06	-1.437866e-02	1.587957e-03
2.957271602467942e-06	-1.667058e-02	1.852537e-03
5.812260855101027e-06	-3.677742e-02	3.639583e-03
9.118708983207693e-06	-7.008766e-02	5.706816e-03
1.400152148320769e-05	-1.331296e-01	8.753654e-03
1.888433398320769e-05	-2.064467e-01	1.179131e-02
2.376714648320770e-05	-2.868728e-01	1.481732e-02
2.864995898320770e-05	-3.713739e-01	1.782904e-02
3.841558398320770e-05	-5.459602e-01	2.379882e-02
4.678611969749342e-05	-6.989358e-01	2.887826e-02
5.515665541177913e-05	-8.492500e-01	3.384440e-02
6.352719112606486e-05	-9.969028e-01	3.869726e-02
7.189772684035057e-05	-1.141894e+00	4.343682e-02
8.026826255463630e-05	-1.284224e+00	4.806310e-02
8.863879826892201e-05	-1.423893e+00	5.257608e-02
9.700933398320771e-05	-1.560900e+00	5.697578e-02
1.116577714832077e-04	-1.791675e+00	6.435340e-02
1.263062089832077e-04	-2.003350e+00	7.106107e-02
1.409546464832078e-04	-2.195925e+00	7.709880e-02
1.556030839832078e-04	-2.369400e+00	8.246659e-02
1.702515214832078e-04	-2.523774e+00	8.716444e-02
1.848999589832078e-04	-2.659047e+00	9.119234e-02
1.995483964832078e-04	-2.775221e+00	9.455030e-02
2.169870125546364e-04	-2.879137e+00	9.736789e-02
2.344256286260650e-04	-2.947808e+00	9.901014e-02
2.518642446974936e-04	-2.981236e+00	9.947705e-02
2.693028607689221e-04	-2.979420e+00	9.876863e-02
2.867414768403508e-04	-2.942360e+00	9.688486e-02
3.041800929117793e-04	-2.870056e+00	9.382577e-02
3.216187089832079e-04	-2.762508e+00	8.959133e-02
3.355696018403507e-04	-2.649998e+00	8.534784e-02
3.495204946974936e-04	-2.520090e+00	8.055353e-02
3.634713875546365e-04	-2.372785e+00	7.520841e-02
3.774222804117794e-04	-2.208083e+00	6.931248e-02
3.913731732689222e-04	-2.025984e+00	6.286573e-02
4.053240661260651e-04	-1.826488e+00	5.586818e-02
4.192749589832080e-04	-1.609594e+00	4.831981e-02
4.283430393403508e-04	-1.462817e+00	4.324470e-02
4.374111196974937e-04	-1.312570e+00	3.807216e-02
4.464792000546366e-04	-1.158855e+00	3.280216e-02
4.555472804117795e-04	-1.001670e+00	2.743473e-02
4.646153607689223e-04	-8.410158e-01	2.196984e-02
4.736834411260652e-04	-6.768926e-01	1.640752e-02
4.827515214832080e-04	-5.093001e-01	1.074774e-02
4.869367893403509e-04	-4.318301e-01	8.138491e-03
4.911220571974938e-04	-3.542014e-01	5.528126e-03
4.953073250546366e-04	-2.764141e-01	2.916648e-03
4.994925929117795e-04	-1.984683e-01	3.040572e-04
5.036778607689223e-04	-1.203638e-01	-2.309646e-03
5.078631286260652e-04	-4.210071e-02	-4.924463e-03
5.120483964832080e-04	3.632097e-02	-7.540392e-03
5.176287536260651e-04	1.409644e-01	-1.102438e-02
5.232091107689223e-04	2.451067e-01	-1.448427e-02
5.287894679117794e-04	3.487477e-01	-1.792007e-02
5.343698250546366e-04	4.518875e-01	-2.133177e-02
5.399501821974937e-04	5.545260e-01	-2.471937e-02
5.455305393403509e-04	6.566634e-01	-2.808288e-02
5.511108964832080e-04	7.582995e-01	-3.142229e-02
5.622716107689223e-04	9.602636e-01	-3.803375e-02
5.734323250546367e-04	1.155176e+00	-4.438401e-02
5.845930393403510e-04	1.343036e+00	-5.047308e-02
5.957537536260653e-04	1.523843e+00	-5.630096e-02
6.069144679117795e-04	1.697599e+00	-6.186765e-02
6.180751821974938e-04	1.864302e+00	-6.717315e-02
6.292358964832081e-04	2.023954e+00	-7.221746e-02
6.473720571974938e-04	2.263147e+00	-7.967803e-02
6.655082179117795e-04	2.467583e+00	-8.594749e-02
6.836443786260654e-04	2.637262e+00	-9.102582e-02
7.017805393403511e-04	2.772184e+00	-9.491302e-02
7.199167000546368e-04	2.872349e+00	-9.760910e-02
7.380528607689225e-04	2.937758e+00	-9.911406e-02
7.561890214832082e-04	2.968409e+00	-9.942789e-02
7.736276375546368e-04	2.954712e+00	-9.828891e-02
7.910662536260655e-04	2.908051e+00	-9.607558e-02
8.085048696974940e-04	2.828425e+00	-9.278789e-02
8.259434857689226e-04	2.715835e+00	-8.842584e-02
8.433821018403512e-04	2.570280e+00	-8.298943e-02
8.608207179117798e-04	2.391761e+00	-7.647867e-02
8.782593339832083e-04	2.180278e+00	-6.889355e-02
8.894200482689226e-04	2.031373e+00	-6.362089e-02
9.005807625546369e-04	1.874487e+00	-5.810677e-02
9.117414768403513e-04	1.709620e+00	-5.235119e-02
9.229021911260656e-04	1.536773e+00	-4.635416e-02
9.340629054117798e-04	1.355946e+00	-4.011568e-02
9.452236196974941e-04	1.167138e+00	-3.363574e-02
9.563843339832084e-04	9.703500e-01	-2.691435e-02
9.626622357689226e-04	8.582618e-01	-2.310069e-02
9.689401375546369e-04	7.452694e-01	-1.926610e-02
9.752180393403511e-04	6.313728e-01	-1.541059e-02
9.814959411260653e-04	5.165721e-01	-1.153415e-02
9.877738429117796e-04	4.008671e-01	-7.636780e-03
9.940517446974937e-04	2.842579e-01	-3.718484e-03
1.000329646483208e-03	1.667446e-01	2.207409e-04
1.003817369697494e-03	1.015013e-01	2.403640e-03
1.007305092911779e-03	3.628356e-02	4.582774e-03
1.010792816126065e-03	-2.890854e-02	6.758143e-03
1.014280539340351e-03	-9.407502e-02	8.929747e-03
1.017768262554636e-03	-1.592159e-01	1.109759e-02
1.021255985768922e-03	-2.243311e-01	1.326166e-02
1.024743708983207e-03	-2.894208e-01	1.542197e-02
1.033114244697493e-03	-4.458831e-01	2.060259e-02
1.041484780411778e-03	-6.000871e-01	2.569180e-02
1.049855316126064e-03	-7.520328e-01	3.068960e-02
1.058225851840350e-03	-9.017202e-01	3.559598e-02
1.066596387554635e-03	-1.049149e+00	4.041096e-02
1.074966923268921e-03	-1.194320e+00	4.513451e-02
1.083337458983206e-03	-1.337233e+00	4.976666e-02
1.097288351840349e-03	-1.569056e+00	5.723576e-02
1.111239244697491e-03	-1.785103e+00	6.414543e-02
1.125190137554634e-03	-1.985374e+00	7.049566e-02
1.139141030411777e-03	-2.169869e+00	7.628647e-02
1.153091923268919e-03	-2.338588e+00	8.151785e-02
1.167042816126062e-03	-2.491530e+00	8.618979e-02
1.180993708983204e-03	-2.628697e+00	9.030230e-02
1.198432325054632e-03	-2.768999e+00	9.436271e-02
1.215870941126061e-03	-2.874272e+00	9.724664e-02
1.233309557197489e-03	-2.944517e+00	9.895408e-02
1.250748173268917e-03	-2.979734e+00	9.948504e-02
1.268186789340345e-03	-2.979922e+00	9.883951e-02
1.285625405411773e-03	-2.945081e+00	9.701750e-02
1.303064021483202e-03	-2.875213e+00	9.401900e-02
1.318410003626058e-03	-2.781168e+00	9.031596e-02
1.333755985768915e-03	-2.664684e+00	8.589623e-02
1.349101967911772e-03	-2.525760e+00	8.075981e-02
1.364447950054629e-03	-2.364397e+00	7.490669e-02
1.379793932197486e-03	-2.180595e+00	6.833689e-02
1.395139914340342e-03	-1.974352e+00	6.105040e-02
1.410485896483199e-03	-1.745671e+00	5.304722e-02
1.420251521483199e-03	-1.592612e+00	4.773187e-02
1.430017146483199e-03	-1.435120e+00	4.228949e-02
1.439782771483199e-03	-1.273195e+00	3.672008e-02
1.449548396483198e-03	-1.106838e+00	3.102364e-02
1.459314021483198e-03	-9.360473e-01	2.520018e-02
1.469079646483198e-03	-7.608241e-01	1.924968e-02
1.478845271483198e-03	-5.811681e-01	1.317216e-02
1.483030539340341e-03	-5.040202e-01	1.056979e-02
1.487215807197483e-03	-4.266635e-01	7.964624e-03
1.491401075054626e-03	-3.490979e-01	5.356658e-03
1.495586342911769e-03	-2.713235e-01	2.745892e-03
1.499771610768912e-03	-1.933401e-01	1.323263e-04
1.503956878626054e-03	-1.151479e-01	-2.484039e-03
1.508142146483197e-03	-3.674676e-02	-5.103204e-03
1.522790583983197e-03	2.369875e-01	-1.421484e-02
1.530463575054625e-03	3.805017e-01	-1.897108e-02
1.538136566126054e-03	5.223013e-01	-2.365651e-02
1.545809557197482e-03	6.623862e-01	-2.827112e-02
1.553482548268910e-03	8.007565e-01	-3.281491e-02
1.561155539340339e-03	9.374121e-01	-3.728788e-02
1.568828530411767e-03	1.072353e+00	-4.169003e-02
1.576501521483196e-03	1.205579e+00	-4.602137e-02
1.589754869697481e-03	1.430838e+00	-5.330586e-02
1.603008217911766e-03	1.642728e+00	-6.011278e-02
1.616261566126052e-03	1.841248e+00	-6.644211e-02
1.629514914340337e-03	2.026399e+00	-7.229387e-02
1.642768262554623e-03	2.198181e+00	-7.766806e-02
1.656021610768908e-03	2.356593e+00	-8.256466e-02
1.669274958983194e-03	2.501636e+00	-8.698369e-02
1.686016030411765e-03	2.658022e+00	-9.162935e-02
1.702757101840336e-03	2.782537e+00	-9.519869e-02
1.719498173268907e-03	2.875181e+00	-9.769169e-02
1.736239244697478e-03	2.935955e+00	-9.910837e-02
1.752980316126049e-03	2.964859e+00	-9.944871e-02
1.769721387554620e-03	2.961891e+00	-9.871273e-02
1.786462458983191e-03	2.927054e+00	-9.690042e-02
1.802505985768905e-03	2.858503e+00	-9.400381e-02
1.818549512554619e-03	2.764027e+00	-9.027257e-02
1.834593039340333e-03	2.643625e+00	-8.570669e-02
1.850636566126047e-03	2.497297e+00	-8.030617e-02
1.866680092911761e-03	2.325042e+00	-7.407101e-02
1.882723619697475e-03	2.126862e+00	-6.700121e-02
1.898767146483189e-03	1.902756e+00	-5.909677e-02
1.909230316126046e-03	1.746794e+00	-5.364617e-02
1.919693485768903e-03	1.585071e+00	-4.802665e-02
1.930156655411760e-03	1.417587e+00	-4.223821e-02
1.940619825054617e-03	1.244342e+00	-3.628085e-02
1.951082994697474e-03	1.065335e+00	-3.015457e-02
1.961546164340330e-03	8.805675e-01	-2.385937e-02
1.972009333983187e-03	6.900387e-01	-1.739525e-02
1.976892146483187e-03	6.007212e-01	-1.437466e-02
1.981774958983187e-03	5.110428e-01	-1.134768e-02
1.986657771483187e-03	4.210033e-01	-8.314319e-03
1.991540583983187e-03	3.306028e-01	-5.274565e-03
1.996423396483187e-03	2.398413e-01	-2.228422e-03
2.001306208983187e-03	1.487188e-01	8.241102e-04
2.006189021483187e-03	5.723533e-02	3.883031e-03
2.020837458983186e-03	-2.166004e-01	1.300489e-02
2.028510450054615e-03	-3.602933e-01	1.777069e-02
2.036183441126043e-03	-5.023537e-01	2.246837e-02
2.043856432197472e-03	-6.427816e-01	2.709793e-02
2.051529423268900e-03	-7.815770e-01	3.165936e-02
2.059202414340328e-03	-9.187398e-01	3.615268e-02
2.066875405411757e-03	-1.054270e+00	4.057788e-02
2.074548396483185e-03	-1.188168e+00	4.493496e-02
2.087801744697471e-03	-1.414797e+00	5.227080e-02
2.101055092911756e-03	-1.628248e+00	5.913512e-02
2.114308441126042e-03	-1.828521e+00	6.552792e-02
2.127561789340327e-03	-2.015616e+00	7.144919e-02
2.140815137554612e-03	-2.189533e+00	7.689893e-02
2.154068485768898e-03	-2.350272e+00	8.187715e-02
2.167321833983183e-03	-2.497834e+00	8.638384e-02
2.184062905411754e-03	-2.657652e+00	9.114797e-02
2.200803976840325e-03	-2.785681e+00	9.483769e-02
2.217545048268896e-03	-2.881921e+00	9.745302e-02
2.234286119697467e-03	-2.946372e+00	9.899393e-02
2.251027191126039e-03	-2.979035e+00	9.946045e-02
2.267768262554609e-03	-2.979908e+00	9.885256e-02
2.284509333983181e-03	-2.948992e+00	9.717026e-02
2.300552860768895e-03	-2.884123e+00	9.439480e-02
2.316596387554608e-03	-2.793148e+00	9.077802e-02
2.332639914340322e-03	-2.676065e+00	8.631993e-02
2.348683441126037e-03	-2.532876e+00	8.102051e-02
2.364726967911750e-03	-2.363580e+00	7.487978e-02
2.380770494697464e-03	-2.168178e+00	6.789773e-02
2.396814021483178e-03	-1.946669e+00	6.007437e-02
2.407277191126035e-03	-1.792211e+00	5.467006e-02
2.417740360768892e-03	-1.631852e+00	4.909202e-02
2.428203530411749e-03	-1.465592e+00	4.334025e-02
2.438666700054606e-03	-1.293431e+00	3.741475e-02
2.449129869697463e-03	-1.115370e+00	3.131552e-02
2.459593039340320e-03	-9.314067e-01	2.504256e-02
2.470056208983177e-03	-7.415428e-01	1.859586e-02
2.474939021483177e-03	-6.524785e-01	1.558149e-02
2.479821833983176e-03	-5.630192e-01	1.255959e-02
2.484704646483176e-03	-4.731648e-01	9.530148e-03
2.489587458983176e-03	-3.829155e-01	6.493176e-03
2.494470271483176e-03	-2.922710e-01	3.448671e-03
2.499353083983176e-03	-2.012316e-01	3.966313e-04
2.504235896483176e-03	-1.097971e-01	-2.662942e-03
2.518884333983176e-03	1.640989e-01	-1.179366e-02
2.525859780411747e-03	2.947700e-01	-1.613150e-02
2.532835226840318e-03	4.242450e-01	-2.041807e-02
2.539810673268889e-03	5.525237e-01	-2.465336e-02
2.546786119697461e-03	6.796062e-01	-2.883738e-02
2.553761566126032e-03	8.054925e-01	-3.297013e-02
2.560737012554603e-03	9.301825e-01	-3.705161e-02
2.567712458983175e-03	1.053676e+00	-4.108182e-02
2.580268262554603e-03	1.272565e+00	-4.819176e-02
2.592824066126031e-03	1.480457e+00	-5.490485e-02
2.605379869697460e-03	1.677353e+00	-6.122106e-02
2.617935673268888e-03	1.863252e+00	-6.714040e-02
2.630491476840316e-03	2.038154e+00	-7.266288e-02
2.643047280411745e-03	2.202060e+00	-7.778848e-02
2.655603083983173e-03	2.354970e+00	-8.251722e-02
2.673041700054601e-03	2.541883e+00	-8.818577e-02
2.690480316126029e-03	2.694831e+00	-9.270211e-02
2.707918932197457e-03	2.813816e+00	-9.606625e-02
2.725357548268885e-03	2.898835e+00	-9.827818e-02
2.742796164340314e-03	2.949890e+00	-9.933792e-02
2.760234780411742e-03	2.966981e+00	-9.924544e-02
2.777673396483170e-03	2.950106e+00	-9.800076e-02
2.794414467911741e-03	2.894875e+00	-9.551397e-02
2.811155539340312e-03	2.810821e+00	-9.209625e-02
2.827896610768883e-03	2.697944e+00	-8.774758e-02
2.844637682197454e-03	2.556244e+00	-8.246799e-02
2.861378753626026e-03	2.385722e+00	-7.625745e-02
2.878119825054596e-03	2.186376e+00	-6.911599e-02
2.894860896483168e-03	1.958208e+00	-6.104358e-02
2.905324066126025e-03	1.805277e+00	-5.568638e-02
2.915787235768881e-03	1.646307e+00	-5.015067e-02
2.926250405411738e-03	1.481296e+00	-4.443643e-02
2.936713575054595e-03	1.310245e+00	-3.854369e-02
2.947176744697452e-03	1.133155e+00	-3.247242e-02
2.957639914340309e-03	9.500242e-01	-2.622264e-02
2.968103083983166e-03	7.608536e-01	-1.979434e-02
2.973683441126023e-03	6.592416e-01	-1.635311e-02
2.979263798268880e-03	5.571249e-01	-1.290241e-02
2.984844155411737e-03	4.545036e-01	-9.442246e-03
2.990424512554594e-03	3.513775e-01	-5.972620e-03
2.996004869697451e-03	2.477467e-01	-2.493531e-03
3.001585226840308e-03	1.436113e-01	9.950203e-04
3.007165583983165e-03	3.897117e-02	4.493035e-03
3.021814021483165e-03	-2.348190e-01	1.360995e-02
3.029487012554593e-03	-3.784253e-01	1.837107e-02
3.037160003626022e-03	-5.203579e-01	2.306271e-02
3.044832994697450e-03	-6.606170e-01	2.768488e-02
3.052505985768878e-03	-7.992024e-01	3.223758e-02
3.060178976840307e-03	-9.361142e-01	3.672080e-02
3.067851967911735e-03	-1.071352e+00	4.113456e-02
3.075524958983164e-03	-1.204917e+00	4.547885e-02
3.088778307197449e-03	-1.430865e+00	5.278916e-02
3.102031655411735e-03	-1.643539e+00	5.962491e-02
3.115285003626020e-03	-1.842939e+00	6.598609e-02
3.128538351840305e-03	-2.029066e+00	7.187272e-02
3.141791700054591e-03	-2.201918e+00	7.728478e-02
3.155045048268876e-03	-2.361497e+00	8.222229e-02
3.168298396483162e-03	-2.507802e+00	8.668523e-02
3.185039467911733e-03	-2.665907e+00	9.139022e-02
3.201780539340304e-03	-2.792181e+00	9.501981e-02
3.218521610768875e-03	-2.886625e+00	9.757402e-02
3.235262682197446e-03	-2.949239e+00	9.905285e-02
3.252003753626017e-03	-2.980023e+00	9.945629e-02
3.268744825054588e-03	-2.978976e+00	9.878434e-02
3.285485896483159e-03	-2.946098e+00	9.703700e-02
3.301529423268873e-03	-2.879387e+00	9.420092e-02
3.317572950054587e-03	-2.786660e+00	9.052684e-02
3.333616476840301e-03	-2.667915e+00	8.601476e-02
3.349660003626015e-03	-2.523154e+00	8.066469e-02
3.365703530411729e-03	-2.352376e+00	7.447663e-02
3.381747057197443e-03	-2.155581e+00	6.745057e-02
3.397790583983157e-03	-1.932769e+00	5.958652e-02
3.408253753626014e-03	-1.777556e+00	5.415897e-02
3.418716923268871e-03	-1.616512e+00	4.856008e-02
3.429180092911728e-03	-1.449637e+00	4.278987e-02
3.439643262554584e-03	-1.276931e+00	3.684832e-02
3.450106432197442e-03	-1.098393e+00	3.073545e-02
3.460569601840298e-03	-9.140248e-01	2.445126e-02
3.471032771483155e-03	-7.238250e-01	1.799573e-02
3.475915583983155e-03	-6.346324e-01	1.497819e-02
3.480798396483155e-03	-5.450618e-01	1.195369e-02
3.485681208983155e-03	-4.551132e-01	8.922235e-03
3.490564021483155e-03	-3.647866e-01	5.883814e-03
3.495446833983155e-03	-2.740819e-01	2.838433e-03
3.500329646483155e-03	-1.829992e-01	-2.139105e-04
3.505212458983155e-03	-9.153856e-02	-3.273215e-03
3.514978083983154e-03	9.110668e-02	-9.365384e-03
3.521255985768868e-03	2.088187e-01	-1.327950e-02
3.527533887554583e-03	3.257424e-01	-1.715803e-02
3.533811789340297e-03	4.418779e-01	-2.100099e-02
3.540089691126011e-03	5.572250e-01	-2.480837e-02
3.546367592911725e-03	6.717838e-01	-2.858016e-02
3.552645494697439e-03	7.855543e-01	-3.231638e-02
3.558923396483153e-03	8.985366e-01	-3.601701e-02
3.570781655411725e-03	1.109748e+00	-4.290642e-02
3.582639914340296e-03	1.312095e+00	-4.947199e-02
3.594498173268867e-03	1.505579e+00	-5.571372e-02
3.606356432197438e-03	1.690198e+00	-6.163160e-02
3.618214691126010e-03	1.865954e+00	-6.722565e-02
3.630072950054580e-03	2.032847e+00	-7.249585e-02
3.641931208983152e-03	2.190876e+00	-7.744221e-02
3.659369825054580e-03	2.400992e+00	-8.391952e-02
3.676808441126008e-03	2.578076e+00	-8.926988e-02
3.694247057197436e-03	2.722129e+00	-9.349330e-02
3.711685673268864e-03	2.833150e+00	-9.658979e-02
3.729124289340293e-03	2.911139e+00	-9.855933e-02
3.746562905411721e-03	2.956097e+00	-9.940193e-02
3.764001521483149e-03	2.968023e+00	-9.911759e-02
3.781440137554577e-03	2.937901e+00	-9.743283e-02
3.798878753626006e-03	2.875465e+00	-9.469871e-02
3.816317369697434e-03	2.780717e+00	-9.091523e-02
3.833755985768862e-03	2.653656e+00	-8.608239e-02
3.851194601840290e-03	2.494282e+00	-8.020019e-02
3.868633217911718e-03	2.302595e+00	-7.326863e-02
3.886071833983146e-03	2.078596e+00	-6.528771e-02
3.897232548268860e-03	1.922518e+00	-5.979100e-02
3.908393262554575e-03	1.759067e+00	-5.407385e-02
3.919553976840288e-03	1.588241e+00	-4.813626e-02
3.930714691126003e-03	1.410043e+00	-4.197823e-02
3.941875405411717e-03	1.224471e+00	-3.559977e-02
3.953036119697431e-03	1.031525e+00	-2.900086e-02
3.964196833983145e-03	8.312054e-01	-2.218152e-02
3.969777191126002e-03	7.302433e-01	-1.875690e-02
3.975357548268860e-03	6.286878e-01	-1.531983e-02
3.980937905411716e-03	5.265390e-01	-1.187032e-02
3.986518262554573e-03	4.237969e-01	-8.408353e-03
3.992098619697430e-03	3.204614e-01	-4.933940e-03
3.997678976840288e-03	2.165325e-01	-1.447078e-03
4.003259333983144e-03	1.120103e-01	2.052234e-03
4.022790583983144e-03	-2.530290e-01	1.421450e-02
4.030463575054572e-03	-3.965433e-01	1.897075e-02
4.038136566126001e-03	-5.383429e-01	2.365618e-02
4.045809557197429e-03	-6.784278e-01	2.827079e-02
4.053482548268858e-03	-8.167980e-01	3.281458e-02
4.061155539340286e-03	-9.534536e-01	3.728755e-02
4.068828530411715e-03	-1.088394e+00	4.168970e-02
4.076501521483143e-03	-1.221621e+00	4.602103e-02
4.089754869697428e-03	-1.446879e+00	5.330553e-02
4.103008217911714e-03	-1.658769e+00	6.011244e-02
4.116261566125999e-03	-1.857289e+00	6.644178e-02
4.129514914340285e-03	-2.042440e+00	7.229354e-02
4.142768262554570e-03	-2.214221e+00	7.766772e-02
4.156021610768856e-03	-2.372634e+00	8.256433e-02
4.169274958983141e-03	-2.517677e+00	8.698335e-02
4.186016030411712e-03	-2.674062e+00	9.162902e-02
4.202757101840283e-03	-2.798577e+00	9.519836e-02
4.219498173268854e-03	-2.891221e+00	9.769136e-02
4.236239244697425e-03	-2.951995e+00	9.910804e-02
4.252980316125996e-03	-2.980898e+00	9.944838e-02
4.269721387554567e-03	-2.977931e+00	9.871240e-02
4.286462458983138e-03	-2.943093e+00	9.690008e-02
4.302505985768853e-03	-2.874543e+00	9.400348e-02
4.318549512554566e-03	-2.780067e+00	9.027223e-02
4.334593039340280e-03	-2.659665e+00	8.570635e-02
4.350636566125994e-03	-2.513337e+00	8.030583e-02
4.366680092911708e-03	-2.341083e+00	7.407067e-02
4.382723619697422e-03	-2.142903e+00	6.700087e-02
4.398767146483136e-03	-1.918797e+00	5.909644e-02
4.409230316125993e-03	-1.762835e+00	5.364583e-02
4.419693485768850e-03	-1.601112e+00	4.802631e-02
4.430156655411707e-03	-1.433628e+00	4.223787e-02
4.440619825054564e-03	-1.260383e+00	3.628051e-02
4.451082994697420e-03	-1.081376e+00	3.015423e-02
4.461546164340278e-03	-8.966088e-01	2.385903e-02
4.472009333983134e-03	-7.060801e-01	1.739492e-02
4.476892146483134e-03	-6.167626e-01	1.437433e-02
4.481774958983134e-03	-5.270842e-01	1.134735e-02
4.486657771483134e-03	-4.370447e-01	8.313985e-03
4.491540583983134e-03	-3.466443e-01	5.274230e-03
4.496423396483134e-03	-2.558828e-01	2.228087e-03
4.501306208983134e-03	-1.647603e-01	-8.244445e-04
4.506189021483134e-03	-7.327686e-02	-3.883365e-03
4.520837458983133e-03	2.005589e-01	-1.300523e-02
