vin	V(vo1)	V(vo2)
-1.000000000000000e+01	-9.996410e+00	-9.996410e+00
-9.990000000000000e+00	-9.996409e+00	-9.996409e+00
-9.980000000000000e+00	-9.996408e+00	-9.996408e+00
-9.970000000000001e+00	-9.996407e+00	-9.996407e+00
-9.960000000000001e+00	-9.996406e+00	-9.996406e+00
-9.950000000000001e+00	-9.996405e+00	-9.996405e+00
-9.940000000000001e+00	-9.996404e+00	-9.996403e+00
-9.930000000000001e+00	-9.996403e+00	-9.996401e+00
-9.920000000000002e+00	-9.996402e+00	-9.996400e+00
-9.910000000000002e+00	-9.996401e+00	-9.996397e+00
-9.900000000000002e+00	-9.996400e+00	-9.996394e+00
-9.890000000000002e+00	-9.996399e+00	-9.996391e+00
-9.880000000000003e+00	-9.996397e+00	-9.996387e+00
-9.870000000000003e+00	-9.996396e+00	-9.996381e+00
-9.860000000000003e+00	-9.996395e+00	-9.996371e+00
-9.850000000000003e+00	-9.996394e+00	-9.996360e+00
-9.840000000000003e+00	-9.996393e+00	-9.996342e+00
-9.830000000000004e+00	-9.996392e+00	-9.996317e+00
-9.820000000000004e+00	-9.996391e+00	-9.996281e+00
-9.810000000000004e+00	-9.996390e+00	-9.996227e+00
-9.800000000000004e+00	-9.996388e+00	-9.996151e+00
-9.790000000000004e+00	-9.996387e+00	-9.996039e+00
-9.780000000000005e+00	-9.996387e+00	-9.995879e+00
-9.770000000000005e+00	-9.996386e+00	-9.995647e+00
-9.760000000000005e+00	-9.996385e+00	-9.995317e+00
-9.750000000000005e+00	-9.996384e+00	-9.994852e+00
-9.740000000000006e+00	-9.996383e+00	-9.994204e+00
-9.730000000000006e+00	-9.996382e+00	-9.993318e+00
-9.720000000000006e+00	-9.996380e+00	-9.992129e+00
-9.710000000000006e+00	-9.996379e+00	-9.990568e+00
-9.700000000000006e+00	-9.996378e+00	-9.988558e+00
-9.690000000000007e+00	-9.996377e+00	-9.986012e+00
-9.680000000000007e+00	-9.996376e+00	-9.982828e+00
-9.670000000000007e+00	-9.996375e+00	-9.978874e+00
-9.660000000000007e+00	-9.996374e+00	-9.973964e+00
-9.650000000000007e+00	-9.996373e+00	-9.967821e+00
-9.640000000000008e+00	-9.996371e+00	-9.960021e+00
-9.630000000000008e+00	-9.996370e+00	-9.949834e+00
-9.620000000000008e+00	-9.996369e+00	-9.936384e+00
-9.610000000000008e+00	-9.996368e+00	-9.918506e+00
-9.600000000000009e+00	-9.996367e+00	-9.895768e+00
-9.590000000000009e+00	-9.996367e+00	-9.869288e+00
-9.580000000000009e+00	-9.996366e+00	-9.840858e+00
-9.570000000000009e+00	-9.996365e+00	-9.811653e+00
-9.560000000000009e+00	-9.996363e+00	-9.782182e+00
-9.550000000000010e+00	-9.996362e+00	-9.752621e+00
-9.540000000000010e+00	-9.996361e+00	-9.723031e+00
-9.530000000000010e+00	-9.996360e+00	-9.693431e+00
-9.520000000000010e+00	-9.996359e+00	-9.663826e+00
-9.510000000000010e+00	-9.996358e+00	-9.634218e+00
-9.500000000000011e+00	-9.996357e+00	-9.604609e+00
-9.490000000000011e+00	-9.996356e+00	-9.574998e+00
-9.480000000000011e+00	-9.996355e+00	-9.545385e+00
-9.470000000000011e+00	-9.996353e+00	-9.515771e+00
-9.460000000000012e+00	-9.996352e+00	-9.486156e+00
-9.450000000000012e+00	-9.996351e+00	-9.456538e+00
-9.440000000000012e+00	-9.996350e+00	-9.426919e+00
-9.430000000000012e+00	-9.996349e+00	-9.397299e+00
-9.420000000000012e+00	-9.996348e+00	-9.367678e+00
-9.410000000000013e+00	-9.996347e+00	-9.338054e+00
-9.400000000000013e+00	-9.996346e+00	-9.308430e+00
-9.390000000000013e+00	-9.996345e+00	-9.278803e+00
-9.380000000000013e+00	-9.996344e+00	-9.249176e+00
-9.370000000000013e+00	-9.996343e+00	-9.219546e+00
-9.360000000000014e+00	-9.996342e+00	-9.189917e+00
-9.350000000000014e+00	-9.996341e+00	-9.160284e+00
-9.340000000000014e+00	-9.996340e+00	-9.130651e+00
-9.330000000000014e+00	-9.996339e+00	-9.101016e+00
-9.320000000000014e+00	-9.996338e+00	-9.071381e+00
-9.310000000000015e+00	-9.996336e+00	-9.041743e+00
-9.300000000000015e+00	-9.996335e+00	-9.012104e+00
-9.290000000000015e+00	-9.996334e+00	-8.982464e+00
-9.280000000000015e+00	-9.996333e+00	-8.952823e+00
-9.270000000000016e+00	-9.996332e+00	-8.923180e+00
-9.260000000000016e+00	-9.996331e+00	-8.893536e+00
-9.250000000000016e+00	-9.996330e+00	-8.863891e+00
-9.240000000000016e+00	-9.996329e+00	-8.834244e+00
-9.230000000000016e+00	-9.996327e+00	-8.804596e+00
-9.220000000000017e+00	-9.996326e+00	-8.774946e+00
-9.210000000000017e+00	-9.996325e+00	-8.745296e+00
-9.200000000000017e+00	-9.996325e+00	-8.715644e+00
-9.190000000000017e+00	-9.996324e+00	-8.685990e+00
-9.180000000000017e+00	-9.996323e+00	-8.656337e+00
-9.170000000000018e+00	-9.996322e+00	-8.626681e+00
-9.160000000000018e+00	-9.996321e+00	-8.597024e+00
-9.150000000000018e+00	-9.996319e+00	-8.567367e+00
-9.140000000000018e+00	-9.996318e+00	-8.537707e+00
-9.130000000000019e+00	-9.996317e+00	-8.508046e+00
-9.120000000000019e+00	-9.996316e+00	-8.478385e+00
-9.110000000000019e+00	-9.996315e+00	-8.448722e+00
-9.100000000000019e+00	-9.996314e+00	-8.419058e+00
-9.090000000000019e+00	-9.996313e+00	-8.389393e+00
-9.080000000000020e+00	-9.996312e+00	-8.359727e+00
-9.070000000000020e+00	-9.996310e+00	-8.330059e+00
-9.060000000000020e+00	-9.996309e+00	-8.300391e+00
-9.050000000000020e+00	-9.996308e+00	-8.270721e+00
-9.040000000000020e+00	-9.996307e+00	-8.241050e+00
-9.030000000000021e+00	-9.996306e+00	-8.211378e+00
-9.020000000000021e+00	-9.996305e+00	-8.181705e+00
-9.010000000000021e+00	-9.996305e+00	-8.152031e+00
-9.000000000000021e+00	-9.996304e+00	-8.122355e+00
-8.990000000000022e+00	-9.996302e+00	-8.092679e+00
-8.980000000000022e+00	-9.996301e+00	-8.063002e+00
-8.970000000000022e+00	-9.996300e+00	-8.033323e+00
-8.960000000000022e+00	-9.996299e+00	-8.003644e+00
-8.950000000000022e+00	-9.996298e+00	-7.973963e+00
-8.940000000000023e+00	-9.996297e+00	-7.944282e+00
-8.930000000000023e+00	-9.996296e+00	-7.914599e+00
-8.920000000000023e+00	-9.996295e+00	-7.884915e+00
-8.910000000000023e+00	-9.996293e+00	-7.855230e+00
-8.900000000000023e+00	-9.996292e+00	-7.825544e+00
-8.890000000000024e+00	-9.996291e+00	-7.795857e+00
-8.880000000000024e+00	-9.996290e+00	-7.766170e+00
-8.870000000000024e+00	-9.996289e+00	-7.736481e+00
-8.860000000000024e+00	-9.996288e+00	-7.706791e+00
-8.850000000000025e+00	-9.996287e+00	-7.677100e+00
-8.840000000000025e+00	-9.996285e+00	-7.647408e+00
-8.830000000000025e+00	-9.996284e+00	-7.617715e+00
-8.820000000000025e+00	-9.996284e+00	-7.588021e+00
-8.810000000000025e+00	-9.996283e+00	-7.558327e+00
-8.800000000000026e+00	-9.996282e+00	-7.528631e+00
-8.790000000000026e+00	-9.996281e+00	-7.498934e+00
-8.780000000000026e+00	-9.996280e+00	-7.469237e+00
-8.770000000000026e+00	-9.996279e+00	-7.439538e+00
-8.760000000000026e+00	-9.996277e+00	-7.409839e+00
-8.750000000000027e+00	-9.996276e+00	-7.380138e+00
-8.740000000000027e+00	-9.996275e+00	-7.350437e+00
-8.730000000000027e+00	-9.996274e+00	-7.320735e+00
-8.720000000000027e+00	-9.996273e+00	-7.291031e+00
-8.710000000000027e+00	-9.996272e+00	-7.261327e+00
-8.700000000000028e+00	-9.996271e+00	-7.231622e+00
-8.690000000000028e+00	-9.996270e+00	-7.201916e+00
-8.680000000000028e+00	-9.996268e+00	-7.172210e+00
-8.670000000000028e+00	-9.996267e+00	-7.142502e+00
-8.660000000000029e+00	-9.996266e+00	-7.112793e+00
-8.650000000000029e+00	-9.996265e+00	-7.083084e+00
-8.640000000000029e+00	-9.996264e+00	-7.053373e+00
-8.630000000000029e+00	-9.996264e+00	-7.023663e+00
-8.620000000000029e+00	-9.996263e+00	-6.993950e+00
-8.610000000000030e+00	-9.996262e+00	-6.964238e+00
-8.600000000000030e+00	-9.996260e+00	-6.934524e+00
-8.590000000000030e+00	-9.996259e+00	-6.904809e+00
-8.580000000000030e+00	-9.996258e+00	-6.875094e+00
-8.570000000000030e+00	-9.996257e+00	-6.845377e+00
-8.560000000000031e+00	-9.996256e+00	-6.815660e+00
-8.550000000000031e+00	-9.996255e+00	-6.785943e+00
-8.540000000000031e+00	-9.996254e+00	-6.756224e+00
-8.530000000000031e+00	-9.996253e+00	-6.726504e+00
-8.520000000000032e+00	-9.996251e+00	-6.696784e+00
-8.510000000000032e+00	-9.996250e+00	-6.667063e+00
-8.500000000000032e+00	-9.996249e+00	-6.637341e+00
-8.490000000000032e+00	-9.996248e+00	-6.607618e+00
-8.480000000000032e+00	-9.996247e+00	-6.577895e+00
-8.470000000000033e+00	-9.996246e+00	-6.548170e+00
-8.460000000000033e+00	-9.996245e+00	-6.518445e+00
-8.450000000000033e+00	-9.996244e+00	-6.488719e+00
-8.440000000000033e+00	-9.996243e+00	-6.458992e+00
-8.430000000000033e+00	-9.996242e+00	-6.429265e+00
-8.420000000000034e+00	-9.996241e+00	-6.399537e+00
-8.410000000000034e+00	-9.996240e+00	-6.369808e+00
-8.400000000000034e+00	-9.996239e+00	-6.340078e+00
-8.390000000000034e+00	-9.996238e+00	-6.310348e+00
-8.380000000000035e+00	-9.996237e+00	-6.280617e+00
-8.370000000000035e+00	-9.996235e+00	-6.250885e+00
-8.360000000000035e+00	-9.996234e+00	-6.221152e+00
-8.350000000000035e+00	-9.996233e+00	-6.191419e+00
-8.340000000000035e+00	-9.996232e+00	-6.161685e+00
-8.330000000000036e+00	-9.996231e+00	-6.131950e+00
-8.320000000000036e+00	-9.996230e+00	-6.102214e+00
-8.310000000000036e+00	-9.996229e+00	-6.072478e+00
-8.300000000000036e+00	-9.996228e+00	-6.042741e+00
-8.290000000000036e+00	-9.996226e+00	-6.013003e+00
-8.280000000000037e+00	-9.996225e+00	-5.983265e+00
-8.270000000000037e+00	-9.996224e+00	-5.953526e+00
-8.260000000000037e+00	-9.996223e+00	-5.923786e+00
-8.250000000000037e+00	-9.996222e+00	-5.894045e+00
-8.240000000000038e+00	-9.996222e+00	-5.864304e+00
-8.230000000000038e+00	-9.996221e+00	-5.834562e+00
-8.220000000000038e+00	-9.996220e+00	-5.804820e+00
-8.210000000000038e+00	-9.996218e+00	-5.775076e+00
-8.200000000000038e+00	-9.996217e+00	-5.745332e+00
-8.190000000000039e+00	-9.996216e+00	-5.715588e+00
-8.180000000000039e+00	-9.996215e+00	-5.685843e+00
-8.170000000000039e+00	-9.996214e+00	-5.656096e+00
-8.160000000000039e+00	-9.996213e+00	-5.626350e+00
-8.150000000000039e+00	-9.996212e+00	-5.596603e+00
-8.140000000000040e+00	-9.996211e+00	-5.566855e+00
-8.130000000000040e+00	-9.996209e+00	-5.537106e+00
-8.120000000000040e+00	-9.996208e+00	-5.507357e+00
-8.110000000000040e+00	-9.996207e+00	-5.477607e+00
-8.100000000000041e+00	-9.996206e+00	-5.447856e+00
-8.090000000000041e+00	-9.996205e+00	-5.418106e+00
-8.080000000000041e+00	-9.996204e+00	-5.388354e+00
-8.070000000000041e+00	-9.996203e+00	-5.358601e+00
-8.060000000000041e+00	-9.996202e+00	-5.328848e+00
-8.050000000000042e+00	-9.996201e+00	-5.299095e+00
-8.040000000000042e+00	-9.996200e+00	-5.269341e+00
-8.030000000000042e+00	-9.996199e+00	-5.239585e+00
-8.020000000000042e+00	-9.996198e+00	-5.209830e+00
-8.010000000000042e+00	-9.996197e+00	-5.180074e+00
-8.000000000000043e+00	-9.996196e+00	-5.150317e+00
-7.990000000000043e+00	-9.996195e+00	-5.120560e+00
-7.980000000000043e+00	-9.996193e+00	-5.090802e+00
-7.970000000000043e+00	-9.996192e+00	-5.061043e+00
-7.960000000000043e+00	-9.996191e+00	-5.031284e+00
-7.950000000000044e+00	-9.996190e+00	-5.001524e+00
-7.940000000000044e+00	-9.996189e+00	-4.971764e+00
-7.930000000000044e+00	-9.996188e+00	-4.942003e+00
-7.920000000000044e+00	-9.996187e+00	-4.912241e+00
-7.910000000000045e+00	-9.996186e+00	-4.882480e+00
-7.900000000000045e+00	-9.996184e+00	-4.852717e+00
-7.890000000000045e+00	-9.996183e+00	-4.822954e+00
-7.880000000000045e+00	-9.996182e+00	-4.793190e+00
-7.870000000000045e+00	-9.996181e+00	-4.763425e+00
-7.860000000000046e+00	-9.996181e+00	-4.733661e+00
-7.850000000000046e+00	-9.996180e+00	-4.703895e+00
-7.840000000000046e+00	-9.996179e+00	-4.674129e+00
-7.830000000000046e+00	-9.996177e+00	-4.644362e+00
-7.820000000000046e+00	-9.996176e+00	-4.614595e+00
-7.810000000000047e+00	-9.996175e+00	-4.584827e+00
-7.800000000000047e+00	-9.996174e+00	-4.555059e+00
-7.790000000000047e+00	-9.996173e+00	-4.525290e+00
-7.780000000000047e+00	-9.996172e+00	-4.495521e+00
-7.770000000000048e+00	-9.996171e+00	-4.465751e+00
-7.760000000000048e+00	-9.996170e+00	-4.435980e+00
-7.750000000000048e+00	-9.996168e+00	-4.406209e+00
-7.740000000000048e+00	-9.996167e+00	-4.376438e+00
-7.730000000000048e+00	-9.996166e+00	-4.346666e+00
-7.720000000000049e+00	-9.996165e+00	-4.316893e+00
-7.710000000000049e+00	-9.996164e+00	-4.287120e+00
-7.700000000000049e+00	-9.996163e+00	-4.257347e+00
-7.690000000000049e+00	-9.996162e+00	-4.227572e+00
-7.680000000000049e+00	-9.996161e+00	-4.197798e+00
-7.670000000000050e+00	-9.996160e+00	-4.168023e+00
-7.660000000000050e+00	-9.996159e+00	-4.138247e+00
-7.650000000000050e+00	-9.996158e+00	-4.108470e+00
-7.640000000000050e+00	-9.996157e+00	-4.078694e+00
-7.630000000000051e+00	-9.996156e+00	-4.048916e+00
-7.620000000000051e+00	-9.996155e+00	-4.019139e+00
-7.610000000000051e+00	-9.996154e+00	-3.989360e+00
-7.600000000000051e+00	-9.996152e+00	-3.959582e+00
-7.590000000000051e+00	-9.996151e+00	-3.929802e+00
-7.580000000000052e+00	-9.996150e+00	-3.900023e+00
-7.570000000000052e+00	-9.996149e+00	-3.870242e+00
-7.560000000000052e+00	-9.996148e+00	-3.840462e+00
-7.550000000000052e+00	-9.996147e+00	-3.810680e+00
-7.540000000000052e+00	-9.996146e+00	-3.780899e+00
-7.530000000000053e+00	-9.996145e+00	-3.751117e+00
-7.520000000000053e+00	-9.996143e+00	-3.721334e+00
-7.510000000000053e+00	-9.996142e+00	-3.691550e+00
-7.500000000000053e+00	-9.996141e+00	-3.661767e+00
-7.490000000000054e+00	-9.996140e+00	-3.631983e+00
-7.480000000000054e+00	-9.996140e+00	-3.602198e+00
-7.470000000000054e+00	-9.996139e+00	-3.572413e+00
-7.460000000000054e+00	-9.996138e+00	-3.542628e+00
-7.450000000000054e+00	-9.996136e+00	-3.512841e+00
-7.440000000000055e+00	-9.996135e+00	-3.483055e+00
-7.430000000000055e+00	-9.996134e+00	-3.453268e+00
-7.420000000000055e+00	-9.996133e+00	-3.423481e+00
-7.410000000000055e+00	-9.996132e+00	-3.393693e+00
-7.400000000000055e+00	-9.996131e+00	-3.363904e+00
-7.390000000000056e+00	-9.996130e+00	-3.334116e+00
-7.380000000000056e+00	-9.996129e+00	-3.304327e+00
-7.370000000000056e+00	-9.996127e+00	-3.274537e+00
-7.360000000000056e+00	-9.996126e+00	-3.244747e+00
-7.350000000000056e+00	-9.996125e+00	-3.214956e+00
-7.340000000000057e+00	-9.996124e+00	-3.185165e+00
-7.330000000000057e+00	-9.996123e+00	-3.155374e+00
-7.320000000000057e+00	-9.996122e+00	-3.125582e+00
-7.310000000000057e+00	-9.996121e+00	-3.095789e+00
-7.300000000000058e+00	-9.996119e+00	-3.065997e+00
-7.290000000000058e+00	-9.996119e+00	-3.036203e+00
-7.280000000000058e+00	-9.996118e+00	-3.006410e+00
-7.270000000000058e+00	-9.996117e+00	-2.976616e+00
-7.260000000000058e+00	-9.996116e+00	-2.946821e+00
-7.250000000000059e+00	-9.996115e+00	-2.917026e+00
-7.240000000000059e+00	-9.996114e+00	-2.887231e+00
-7.230000000000059e+00	-9.996113e+00	-2.857435e+00
-7.220000000000059e+00	-9.996111e+00	-2.827639e+00
-7.210000000000059e+00	-9.996110e+00	-2.797842e+00
-7.200000000000060e+00	-9.996109e+00	-2.768045e+00
-7.190000000000060e+00	-9.996108e+00	-2.738248e+00
-7.180000000000060e+00	-9.996107e+00	-2.708450e+00
-7.170000000000060e+00	-9.996106e+00	-2.678651e+00
-7.160000000000061e+00	-9.996105e+00	-2.648853e+00
-7.150000000000061e+00	-9.996103e+00	-2.619053e+00
-7.140000000000061e+00	-9.996102e+00	-2.589254e+00
-7.130000000000061e+00	-9.996101e+00	-2.559454e+00
-7.120000000000061e+00	-9.996100e+00	-2.529654e+00
-7.110000000000062e+00	-9.996099e+00	-2.499853e+00
-7.100000000000062e+00	-9.996099e+00	-2.470052e+00
-7.090000000000062e+00	-9.996098e+00	-2.440250e+00
-7.080000000000062e+00	-9.996096e+00	-2.410448e+00
-7.070000000000062e+00	-9.996095e+00	-2.380646e+00
-7.060000000000063e+00	-9.996094e+00	-2.350843e+00
-7.050000000000063e+00	-9.996093e+00	-2.321040e+00
-7.040000000000063e+00	-9.996092e+00	-2.291236e+00
-7.030000000000063e+00	-9.996091e+00	-2.261432e+00
-7.020000000000064e+00	-9.996090e+00	-2.231628e+00
-7.010000000000064e+00	-9.996089e+00	-2.201823e+00
-7.000000000000064e+00	-9.996087e+00	-2.172018e+00
-6.990000000000064e+00	-9.996086e+00	-2.142213e+00
-6.980000000000064e+00	-9.996085e+00	-2.112407e+00
-6.970000000000065e+00	-9.996084e+00	-2.082601e+00
-6.960000000000065e+00	-9.996083e+00	-2.052794e+00
-6.950000000000065e+00	-9.996082e+00	-2.022987e+00
-6.940000000000065e+00	-9.996081e+00	-1.993180e+00
-6.930000000000065e+00	-9.996079e+00	-1.963372e+00
-6.920000000000066e+00	-9.996078e+00	-1.933564e+00
-6.910000000000066e+00	-9.996078e+00	-1.903755e+00
-6.900000000000066e+00	-9.996077e+00	-1.873946e+00
-6.890000000000066e+00	-9.996076e+00	-1.844137e+00
-6.880000000000067e+00	-9.996075e+00	-1.814328e+00
-6.870000000000067e+00	-9.996074e+00	-1.784518e+00
-6.860000000000067e+00	-9.996073e+00	-1.754707e+00
-6.850000000000067e+00	-9.996071e+00	-1.724897e+00
-6.840000000000067e+00	-9.996070e+00	-1.695086e+00
-6.830000000000068e+00	-9.996069e+00	-1.665274e+00
-6.820000000000068e+00	-9.996068e+00	-1.635462e+00
-6.810000000000068e+00	-9.996067e+00	-1.605650e+00
-6.800000000000068e+00	-9.996066e+00	-1.575838e+00
-6.790000000000068e+00	-9.996065e+00	-1.546025e+00
-6.780000000000069e+00	-9.996063e+00	-1.516212e+00
-6.770000000000069e+00	-9.996062e+00	-1.486398e+00
-6.760000000000069e+00	-9.996061e+00	-1.456584e+00
-6.750000000000069e+00	-9.996060e+00	-1.426770e+00
-6.740000000000069e+00	-9.996059e+00	-1.396955e+00
-6.730000000000070e+00	-9.996058e+00	-1.367140e+00
-6.720000000000070e+00	-9.996058e+00	-1.337325e+00
-6.710000000000070e+00	-9.996056e+00	-1.307509e+00
-6.700000000000070e+00	-9.996055e+00	-1.277694e+00
-6.690000000000071e+00	-9.996054e+00	-1.247877e+00
-6.680000000000071e+00	-9.996053e+00	-1.218060e+00
-6.670000000000071e+00	-9.996052e+00	-1.188244e+00
-6.660000000000071e+00	-9.996051e+00	-1.158426e+00
-6.650000000000071e+00	-9.996050e+00	-1.128608e+00
-6.640000000000072e+00	-9.996049e+00	-1.098790e+00
-6.630000000000072e+00	-9.996047e+00	-1.068972e+00
-6.620000000000072e+00	-9.996046e+00	-1.039153e+00
-6.610000000000072e+00	-9.996045e+00	-1.009334e+00
-6.600000000000072e+00	-9.996044e+00	-9.795151e-01
-6.590000000000073e+00	-9.996043e+00	-9.496954e-01
-6.580000000000073e+00	-9.996042e+00	-9.198754e-01
-6.570000000000073e+00	-9.996041e+00	-8.900551e-01
-6.560000000000073e+00	-9.996039e+00	-8.602344e-01
-6.550000000000074e+00	-9.996038e+00	-8.304135e-01
-6.540000000000074e+00	-9.996037e+00	-8.005922e-01
-6.530000000000074e+00	-9.996037e+00	-7.707706e-01
-6.520000000000074e+00	-9.996036e+00	-7.409487e-01
-6.510000000000074e+00	-9.996035e+00	-7.111264e-01
-6.500000000000075e+00	-9.996034e+00	-6.813039e-01
-6.490000000000075e+00	-9.996032e+00	-6.514810e-01
-6.480000000000075e+00	-9.996031e+00	-6.216578e-01
-6.470000000000075e+00	-9.996030e+00	-5.918342e-01
-6.460000000000075e+00	-9.996029e+00	-5.620104e-01
-6.450000000000076e+00	-9.996028e+00	-5.321863e-01
-6.440000000000076e+00	-9.996027e+00	-5.023618e-01
-6.430000000000076e+00	-9.996026e+00	-4.725371e-01
-6.420000000000076e+00	-9.996024e+00	-4.427120e-01
-6.410000000000077e+00	-9.996023e+00	-4.128866e-01
-6.400000000000077e+00	-9.996022e+00	-3.830610e-01
-6.390000000000077e+00	-9.996021e+00	-3.532350e-01
-6.380000000000077e+00	-9.996020e+00	-3.234087e-01
-6.370000000000077e+00	-9.996019e+00	-2.935821e-01
-6.360000000000078e+00	-9.996018e+00	-2.637552e-01
-6.350000000000078e+00	-9.996017e+00	-2.339280e-01
-6.340000000000078e+00	-9.996016e+00	-2.041005e-01
-6.330000000000078e+00	-9.996015e+00	-1.742727e-01
-6.320000000000078e+00	-9.996014e+00	-1.444446e-01
-6.310000000000079e+00	-9.996013e+00	-1.146162e-01
-6.300000000000079e+00	-9.996012e+00	-8.478756e-02
-6.290000000000079e+00	-9.996011e+00	-5.495857e-02
-6.280000000000079e+00	-9.996010e+00	-2.512931e-02
-6.270000000000080e+00	-9.996008e+00	4.700257e-03
-6.260000000000080e+00	-9.996007e+00	3.453011e-02
-6.250000000000080e+00	-9.996006e+00	6.436025e-02
-6.240000000000080e+00	-9.996005e+00	9.419069e-02
-6.230000000000080e+00	-9.996004e+00	1.240214e-01
-6.220000000000081e+00	-9.996003e+00	1.538524e-01
-6.210000000000081e+00	-9.996002e+00	1.836837e-01
-6.200000000000081e+00	-9.996000e+00	2.135153e-01
-6.190000000000081e+00	-9.995999e+00	2.433472e-01
-6.180000000000081e+00	-9.995998e+00	2.731793e-01
-6.170000000000082e+00	-9.995997e+00	3.030117e-01
-6.160000000000082e+00	-9.995996e+00	3.328444e-01
-6.150000000000082e+00	-9.995996e+00	3.626774e-01
-6.140000000000082e+00	-9.995995e+00	3.925107e-01
-6.130000000000082e+00	-9.995993e+00	4.223442e-01
-6.120000000000083e+00	-9.995992e+00	4.521781e-01
-6.110000000000083e+00	-9.995991e+00	4.820122e-01
-6.100000000000083e+00	-9.995990e+00	5.118465e-01
-6.090000000000083e+00	-9.995989e+00	5.416812e-01
