v2	V(vo1)	V(vo2)
-1.000000000000000e+01	-9.996410e+00	-9.996410e+00
-9.900000000000000e+00	-9.996400e+00	-9.996400e+00
-9.800000000000001e+00	-9.996388e+00	-9.996389e+00
-9.700000000000001e+00	-9.996378e+00	-9.996378e+00
-9.600000000000001e+00	-9.996367e+00	-9.996367e+00
-9.500000000000002e+00	-9.996357e+00	-9.996357e+00
-9.400000000000002e+00	-9.996346e+00	-9.996346e+00
-9.300000000000002e+00	-9.996335e+00	-9.996335e+00
-9.200000000000003e+00	-9.996325e+00	-9.996325e+00
-9.100000000000003e+00	-9.996314e+00	-9.996314e+00
-9.000000000000004e+00	-9.996304e+00	-9.996294e+00
-8.900000000000004e+00	-9.996292e+00	-9.995879e+00
-8.800000000000004e+00	-9.996282e+00	-9.984605e+00
-8.700000000000005e+00	-9.996271e+00	-9.868856e+00
-8.600000000000005e+00	-9.996260e+00	-9.603891e+00
-8.500000000000005e+00	-9.996249e+00	-9.337144e+00
-8.400000000000006e+00	-9.996239e+00	-9.070511e+00
-8.300000000000006e+00	-9.996228e+00	-8.803880e+00
-8.200000000000006e+00	-9.996217e+00	-8.537249e+00
-8.100000000000007e+00	-9.996206e+00	-8.270617e+00
-8.000000000000007e+00	-9.996196e+00	-8.003986e+00
-7.900000000000007e+00	-9.996184e+00	-7.737355e+00
-7.800000000000008e+00	-9.996174e+00	-7.470724e+00
-7.700000000000008e+00	-9.996163e+00	-7.204093e+00
-7.600000000000009e+00	-9.996153e+00	-6.937461e+00
-7.500000000000009e+00	-9.996141e+00	-6.670831e+00
-7.400000000000009e+00	-9.996131e+00	-6.404200e+00
-7.300000000000010e+00	-9.996120e+00	-6.137568e+00
-7.200000000000010e+00	-9.996109e+00	-5.870937e+00
-7.100000000000010e+00	-9.996099e+00	-5.604307e+00
-7.000000000000011e+00	-9.996087e+00	-5.337676e+00
-6.900000000000011e+00	-9.996077e+00	-5.071045e+00
-6.800000000000011e+00	-9.996066e+00	-4.804414e+00
-6.700000000000012e+00	-9.996055e+00	-4.537783e+00
-6.600000000000012e+00	-9.996044e+00	-4.271152e+00
-6.500000000000012e+00	-9.996034e+00	-4.004521e+00
-6.400000000000013e+00	-9.996022e+00	-3.737890e+00
-6.300000000000013e+00	-9.996012e+00	-3.471260e+00
-6.200000000000014e+00	-9.996001e+00	-3.204629e+00
-6.100000000000014e+00	-9.995990e+00	-2.937998e+00
-6.000000000000014e+00	-9.995979e+00	-2.671367e+00
-5.900000000000015e+00	-9.995968e+00	-2.404737e+00
-5.800000000000015e+00	-9.995957e+00	-2.138106e+00
-5.700000000000015e+00	-9.995947e+00	-1.871475e+00
-5.600000000000016e+00	-9.995935e+00	-1.604844e+00
-5.500000000000016e+00	-9.995924e+00	-1.338214e+00
-5.400000000000016e+00	-9.995909e+00	-1.071590e+00
-5.300000000000017e+00	-9.995838e+00	-8.050386e-01
-5.200000000000017e+00	-9.995087e+00	-5.393975e-01
-5.100000000000017e+00	-9.988194e+00	-2.819580e-01
-5.000000000000018e+00	-9.953121e+00	-6.211259e-02
-4.900000000000018e+00	-9.799313e+00	-5.534326e-04
-4.800000000000018e+00	-9.599449e+00	-3.857129e-04
-4.700000000000019e+00	-9.399466e+00	-3.777289e-04
-4.600000000000019e+00	-9.199483e+00	-3.698092e-04
-4.500000000000020e+00	-8.999499e+00	-3.618844e-04
-4.400000000000020e+00	-8.799517e+00	-3.539547e-04
-4.300000000000020e+00	-8.599533e+00	-3.460199e-04
-4.200000000000021e+00	-8.399549e+00	-3.380802e-04
-4.100000000000021e+00	-8.199567e+00	-3.301355e-04
-4.000000000000021e+00	-7.999584e+00	-3.221858e-04
-3.900000000000021e+00	-7.799601e+00	-3.142311e-04
-3.800000000000021e+00	-7.599617e+00	-3.062713e-04
-3.700000000000021e+00	-7.399634e+00	-2.983066e-04
-3.600000000000021e+00	-7.199651e+00	-2.903368e-04
-3.500000000000021e+00	-6.999668e+00	-2.823620e-04
-3.400000000000021e+00	-6.799685e+00	-2.743822e-04
-3.300000000000021e+00	-6.599702e+00	-2.663973e-04
-3.200000000000021e+00	-6.399719e+00	-2.584073e-04
-3.100000000000021e+00	-6.199736e+00	-2.504123e-04
-3.000000000000020e+00	-5.999753e+00	-2.424122e-04
-2.900000000000020e+00	-5.799770e+00	-2.344070e-04
-2.800000000000020e+00	-5.599787e+00	-2.263967e-04
-2.700000000000020e+00	-5.399804e+00	-2.183813e-04
-2.600000000000020e+00	-5.199821e+00	-2.103609e-04
-2.500000000000020e+00	-4.999838e+00	-2.023353e-04
-2.400000000000020e+00	-4.799855e+00	-1.943046e-04
-2.300000000000020e+00	-4.599872e+00	-1.862687e-04
-2.200000000000020e+00	-4.399889e+00	-1.782278e-04
-2.100000000000020e+00	-4.199906e+00	-1.701817e-04
-2.000000000000020e+00	-3.999923e+00	-1.621304e-04
-1.900000000000019e+00	-3.799940e+00	-1.540739e-04
-1.800000000000019e+00	-3.599957e+00	-1.460124e-04
-1.700000000000019e+00	-3.399974e+00	-1.379456e-04
-1.600000000000019e+00	-3.199991e+00	-1.298736e-04
-1.500000000000019e+00	-3.000009e+00	-1.217965e-04
-1.400000000000019e+00	-2.800026e+00	-1.137141e-04
-1.300000000000019e+00	-2.600043e+00	-1.056266e-04
-1.200000000000019e+00	-2.400060e+00	-9.753383e-05
-1.100000000000019e+00	-2.200077e+00	-8.943584e-05
-1.000000000000019e+00	-2.000094e+00	-8.133262e-05
-9.000000000000187e-01	-1.800111e+00	-7.322416e-05
-8.000000000000187e-01	-1.600129e+00	-6.511046e-05
-7.000000000000187e-01	-1.400146e+00	-5.699149e-05
-6.000000000000187e-01	-1.200163e+00	-4.886727e-05
-5.000000000000188e-01	-1.000180e+00	-4.073777e-05
-4.000000000000188e-01	-8.001976e-01	-3.260299e-05
-3.000000000000188e-01	-6.002148e-01	-2.446293e-05
-2.000000000000188e-01	-4.002321e-01	-1.631756e-05
-1.000000000000188e-01	-2.002494e-01	-8.166900e-06
-1.879052469178077e-14	-2.666963e-04	-1.092113e-08
9.999999999998122e-02	1.997160e-01	8.150378e-06
1.999999999999812e-01	3.996987e-01	1.631701e-05
2.999999999999812e-01	5.996814e-01	2.448897e-05
3.999999999999813e-01	7.996640e-01	3.266628e-05
4.999999999999812e-01	9.996467e-01	4.084894e-05
5.999999999999812e-01	1.199629e+00	4.903697e-05
6.999999999999812e-01	1.399612e+00	5.723037e-05
7.999999999999812e-01	1.599595e+00	6.542914e-05
8.999999999999811e-01	1.799577e+00	7.363330e-05
9.999999999999811e-01	1.999560e+00	8.184286e-05
1.099999999999981e+00	2.199542e+00	9.005782e-05
1.199999999999981e+00	2.399525e+00	9.827820e-05
1.299999999999981e+00	2.599508e+00	1.065040e-04
1.399999999999981e+00	2.799490e+00	1.147352e-04
1.499999999999982e+00	2.999473e+00	1.229719e-04
1.599999999999982e+00	3.199455e+00	1.312140e-04
1.699999999999982e+00	3.399438e+00	1.394616e-04
1.799999999999982e+00	3.599420e+00	1.477146e-04
1.899999999999982e+00	3.799402e+00	1.559731e-04
1.999999999999982e+00	3.999385e+00	1.642370e-04
2.099999999999982e+00	4.199368e+00	1.725065e-04
2.199999999999982e+00	4.399350e+00	1.807815e-04
2.299999999999982e+00	4.599332e+00	1.890619e-04
2.399999999999982e+00	4.799315e+00	1.973479e-04
2.499999999999982e+00	4.999297e+00	2.056394e-04
2.599999999999982e+00	5.199280e+00	2.139365e-04
2.699999999999982e+00	5.399262e+00	2.222391e-04
2.799999999999983e+00	5.599245e+00	2.305472e-04
2.899999999999983e+00	5.799227e+00	2.388609e-04
2.999999999999983e+00	5.999209e+00	2.471801e-04
3.099999999999983e+00	6.199192e+00	2.555049e-04
3.199999999999983e+00	6.399174e+00	2.638354e-04
3.299999999999983e+00	6.599156e+00	2.721714e-04
3.399999999999983e+00	6.799139e+00	2.805130e-04
3.499999999999983e+00	6.999121e+00	2.888602e-04
3.599999999999983e+00	7.199103e+00	2.972131e-04
3.699999999999983e+00	7.399086e+00	3.055715e-04
3.799999999999983e+00	7.599068e+00	3.139356e-04
3.899999999999983e+00	7.799050e+00	3.223054e-04
3.999999999999984e+00	7.999032e+00	3.306823e-04
4.099999999999984e+00	8.199012e+00	3.424723e-04
4.199999999999983e+00	8.394156e+00	6.799001e-03
4.299999999999983e+00	8.476300e+00	1.638915e-01
4.399999999999983e+00	8.492117e+00	4.094199e-01
4.499999999999982e+00	8.494602e+00	6.727448e-01
4.599999999999982e+00	8.494742e+00	9.392017e-01
4.699999999999982e+00	8.494640e+00	1.205981e+00
4.799999999999981e+00	8.494636e+00	1.472632e+00
4.899999999999981e+00	8.494630e+00	1.739282e+00
4.999999999999980e+00	8.494625e+00	2.005933e+00
5.099999999999980e+00	8.494620e+00	2.272584e+00
5.199999999999980e+00	8.494615e+00	2.539234e+00
5.299999999999979e+00	8.494610e+00	2.805885e+00
5.399999999999979e+00	8.494605e+00	3.072536e+00
5.499999999999979e+00	8.494599e+00	3.339186e+00
5.599999999999978e+00	8.494595e+00	3.605837e+00
5.699999999999978e+00	8.494590e+00	3.872487e+00
5.799999999999978e+00	8.494584e+00	4.139138e+00
5.899999999999977e+00	8.494579e+00	4.405788e+00
5.999999999999977e+00	8.494575e+00	4.672439e+00
6.099999999999977e+00	8.494569e+00	4.939089e+00
6.199999999999976e+00	8.494564e+00	5.205740e+00
6.299999999999976e+00	8.494559e+00	5.472390e+00
6.399999999999975e+00	8.494554e+00	5.739041e+00
6.499999999999975e+00	8.494549e+00	6.005691e+00
6.599999999999975e+00	8.494544e+00	6.272342e+00
6.699999999999974e+00	8.494538e+00	6.538992e+00
6.799999999999974e+00	8.494534e+00	6.805643e+00
6.899999999999974e+00	8.494529e+00	7.072293e+00
6.999999999999973e+00	8.494523e+00	7.338943e+00
7.099999999999973e+00	8.494518e+00	7.605594e+00
7.199999999999973e+00	8.494514e+00	7.872244e+00
7.299999999999972e+00	8.494508e+00	8.138894e+00
7.399999999999972e+00	8.494503e+00	8.400076e+00
7.499999999999972e+00	8.494501e+00	8.486613e+00
7.599999999999971e+00	8.494501e+00	8.494115e+00
7.699999999999971e+00	8.494501e+00	8.494188e+00
7.799999999999971e+00	8.494501e+00	8.494175e+00
7.899999999999970e+00	8.494501e+00	8.494175e+00
7.999999999999970e+00	8.494501e+00	8.494175e+00
8.099999999999969e+00	8.494501e+00	8.494175e+00
8.199999999999969e+00	8.494501e+00	8.494175e+00
8.299999999999969e+00	8.494501e+00	8.494175e+00
8.399999999999968e+00	8.494501e+00	8.494175e+00
8.499999999999968e+00	8.494501e+00	8.494175e+00
8.599999999999968e+00	8.494501e+00	8.494175e+00
8.699999999999967e+00	8.494501e+00	8.494175e+00
8.799999999999967e+00	8.494501e+00	8.494175e+00
8.899999999999967e+00	8.494501e+00	8.494175e+00
8.999999999999966e+00	8.494501e+00	8.494175e+00
9.099999999999966e+00	8.494501e+00	8.494175e+00
9.199999999999966e+00	8.494501e+00	8.494175e+00
9.299999999999965e+00	8.494501e+00	8.494175e+00
9.399999999999965e+00	8.494501e+00	8.494175e+00
9.499999999999964e+00	8.494501e+00	8.494175e+00
9.599999999999964e+00	8.494501e+00	8.494175e+00
9.699999999999964e+00	8.494501e+00	8.494175e+00
9.799999999999963e+00	8.494501e+00	8.494175e+00
9.899999999999963e+00	8.494501e+00	8.494175e+00
1.000000000000000e+01	8.494501e+00	8.494175e+00
