time	V(vin)	V(vo1)	V(vo2)
0.000000000000000e+00	0.000000e+00	-1.471202e-01	1.786869e-04
1.724768765699559e-08	4.334817e-04	-1.471230e-01	1.764030e-04
3.449537531399118e-08	8.669634e-04	-1.471042e-01	1.951280e-04
5.174306297098677e-08	1.300445e-03	-1.470638e-01	2.348619e-04
6.899075062798236e-08	1.733927e-03	-1.470018e-01	2.956047e-04
8.623843828497794e-08	2.167408e-03	-1.469181e-01	3.773564e-04
1.034861259419735e-07	2.600890e-03	-1.468128e-01	4.801171e-04
1.207338135989691e-07	3.034371e-03	-1.466859e-01	6.038866e-04
1.769400660259544e-07	4.446988e-03	-1.460198e-01	1.235445e-03
2.380948671044396e-07	5.983974e-03	-1.448715e-01	2.270255e-03
3.339011436297805e-07	8.391845e-03	-1.421986e-01	4.476139e-03
4.693208277195291e-07	1.179530e-02	-1.369225e-01	8.268450e-03
6.424748480163790e-07	1.614711e-02	-1.279764e-01	1.362338e-02
8.291549429109630e-07	2.083884e-02	-1.157829e-01	1.954461e-02
1.019213538408534e-06	2.561546e-02	-1.004058e-01	2.551904e-02
1.281544365240821e-06	3.220838e-02	-7.338492e-02	3.368844e-02
1.806206018905397e-06	4.539393e-02	-3.819790e-03	5.006958e-02
2.406321954654660e-06	6.047516e-02	9.951317e-02	6.883124e-02
3.312245089988055e-06	8.323979e-02	2.863519e-01	9.590159e-02
3.783581826829915e-06	9.508283e-02	3.822401e-01	1.067387e-01
4.218008259414468e-06	1.059977e-01	4.538565e-01	1.123366e-01
4.362865185455073e-06	1.096370e-01	4.695790e-01	1.132771e-01
4.522666857036401e-06	1.136517e-01	4.805908e-01	1.143205e-01
4.626125712275473e-06	1.162509e-01	4.862534e-01	1.154913e-01
4.744715223596612e-06	1.192300e-01	4.917690e-01	1.174163e-01
4.886981779976444e-06	1.228039e-01	4.976861e-01	1.202712e-01
5.152827010569486e-06	1.294820e-01	5.078013e-01	1.263224e-01
5.400128784946907e-06	1.356940e-01	5.166574e-01	1.323023e-01
5.716121546313707e-06	1.436309e-01	5.275307e-01	1.401404e-01
6.082562783311807e-06	1.528343e-01	5.398187e-01	1.492814e-01
6.815445257308008e-06	1.712385e-01	5.637246e-01	1.675984e-01
7.976479243288521e-06	2.003869e-01	6.002750e-01	1.966443e-01
1.029854721524955e-05	2.586501e-01	6.702617e-01	2.547648e-01
1.420479721524955e-05	3.565317e-01	7.832905e-01	3.524990e-01
1.811104721524955e-05	4.541985e-01	8.926075e-01	4.500868e-01
2.592354721524955e-05	6.486527e-01	1.103814e+00	6.444543e-01
3.373604721524956e-05	8.426675e-01	1.308712e+00	8.384328e-01
4.154854721524957e-05	1.033525e+00	1.509234e+00	1.029269e+00
4.936104721524958e-05	1.221226e+00	1.705381e+00	1.216962e+00
5.717354721524958e-05	1.405770e+00	1.897152e+00	1.401513e+00
6.498604721524959e-05	1.587156e+00	2.084548e+00	1.582921e+00
7.279854721524960e-05	1.765386e+00	2.267568e+00	1.761187e+00
8.061104721524959e-05	1.940458e+00	2.446213e+00	1.936310e+00
9.511997578667818e-05	2.256152e+00	2.768417e+00	2.252123e+00
1.096289043581068e-04	2.547652e+00	3.065699e+00	2.543770e+00
1.241378329295353e-04	2.814957e+00	3.338057e+00	2.811253e+00
1.386467615009639e-04	3.058067e+00	3.585492e+00	3.054569e+00
1.531556900723925e-04	3.276982e+00	3.808005e+00	3.273721e+00
1.676646186438211e-04	3.471703e+00	4.005594e+00	3.468707e+00
1.821735472152497e-04	3.642229e+00	4.178261e+00	3.639527e+00
2.072851543581068e-04	3.854698e+00	4.394012e+00	3.852586e+00
2.323967615009640e-04	3.971217e+00	4.512593e+00	3.969703e+00
2.575083686438212e-04	3.991786e+00	4.534004e+00	3.990878e+00
2.826199757866784e-04	3.916405e+00	4.458245e+00	3.916111e+00
3.077315829295355e-04	3.745074e+00	4.285316e+00	3.745402e+00
3.328431900723927e-04	3.477793e+00	4.015217e+00	3.478751e+00
3.579547972152498e-04	3.114562e+00	3.647948e+00	3.116158e+00
3.702315829295355e-04	2.908271e+00	3.439312e+00	2.910146e+00
3.825083686438213e-04	2.688199e+00	3.216000e+00	2.690334e+00
3.947851543581070e-04	2.454345e+00	2.978014e+00	2.456723e+00
4.070619400723928e-04	2.206709e+00	2.725352e+00	2.209311e+00
4.193387257866785e-04	1.945292e+00	2.458016e+00	1.948100e+00
4.316155115009642e-04	1.670093e+00	2.176004e+00	1.673089e+00
4.438922972152499e-04	1.381112e+00	1.879317e+00	1.384277e+00
4.489146186438214e-04	1.261679e+00	1.756380e+00	1.264907e+00
4.539369400723928e-04	1.141291e+00	1.631595e+00	1.144575e+00
4.589592615009642e-04	1.019950e+00	1.504961e+00	1.023281e+00
4.639815829295356e-04	8.976553e-01	1.376478e+00	9.010250e-01
4.690039043581071e-04	7.744066e-01	1.246147e+00	7.778075e-01
4.740262257866785e-04	6.502042e-01	1.113967e+00	6.536283e-01
4.790485472152499e-04	5.250479e-01	9.799386e-01	5.284873e-01
4.829547972152499e-04	4.275742e-01	8.731774e-01	4.310046e-01
4.868610472152499e-04	3.298430e-01	7.636250e-01	3.332374e-01
4.907672972152499e-04	2.319130e-01	6.493364e-01	2.352115e-01
4.946735472152499e-04	1.338434e-01	5.235131e-01	1.368243e-01
4.985797972152499e-04	3.569312e-02	3.685794e-01	3.733386e-02
5.004904359480253e-04	-1.232598e-02	2.458716e-01	-1.363544e-02
5.019009277248045e-04	-4.777439e-02	7.734977e-02	-5.454942e-02
5.031668982431811e-04	-7.958758e-02	-1.620626e-01	-9.290865e-02
5.038568377647802e-04	-9.692342e-02	-3.325161e-01	-1.101782e-01
5.042426013699890e-04	-1.066156e-01	-4.369242e-01	-1.094422e-01
5.046071602326029e-04	-1.157744e-01	-5.297134e-01	-9.122893e-02
5.048179726450586e-04	-1.210704e-01	-5.748181e-01	-6.972033e-02
5.050319037625339e-04	-1.264445e-01	-6.111853e-01	-4.089424e-02
5.052560899752755e-04	-1.320759e-01	-6.418055e-01	-9.774976e-03
5.054770903919146e-04	-1.376271e-01	-6.663156e-01	1.824936e-02
5.057281398766802e-04	-1.439328e-01	-6.894009e-01	4.487388e-02
5.060354446066505e-04	-1.516509e-01	-7.135706e-01	7.037974e-02
5.063872766899782e-04	-1.604867e-01	-7.379106e-01	9.184712e-02
5.069251439396382e-04	-1.739929e-01	-7.718543e-01	1.156413e-01
5.074237380131028e-04	-1.865112e-01	-8.016581e-01	1.327231e-01
5.078728620848197e-04	-1.977859e-01	-8.276731e-01	1.457537e-01
5.099414840370807e-04	-2.496943e-01	-9.438059e-01	1.998336e-01
5.173927509418552e-04	-4.362580e-01	-1.344310e+00	3.884263e-01
5.257632866561409e-04	-6.460769e-01	-1.780149e+00	5.991198e-01
5.341338223704266e-04	-8.527067e-01	-2.207526e+00	8.066424e-01
5.425043580847123e-04	-1.056147e+00	-2.626440e+00	1.010994e+00
5.508748937989982e-04	-1.256399e+00	-3.036892e+00	1.212175e+00
5.592454295132839e-04	-1.453461e+00	-3.438881e+00	1.410186e+00
5.676159652275696e-04	-1.647334e+00	-3.832408e+00	1.605025e+00
5.759865009418553e-04	-1.838018e+00	-4.217472e+00	1.796694e+00
5.899373937989982e-04	-2.146899e+00	-4.842550e+00	2.107642e+00
6.038882866561410e-04	-2.434267e+00	-5.423924e+00	2.397308e+00
6.178391795132839e-04	-2.700122e+00	-5.961595e+00	2.665691e+00
6.317900723704267e-04	-2.944464e+00	-6.455563e+00	2.912791e+00
6.457409652275696e-04	-3.167293e+00	-6.905827e+00	3.138609e+00
6.596918580847126e-04	-3.368608e+00	-7.312388e+00	3.343143e+00
6.736427509418554e-04	-3.548410e+00	-7.675246e+00	3.526395e+00
6.998704295132840e-04	-3.802237e+00	-8.188736e+00	3.787481e+00
7.260981080847126e-04	-3.951334e+00	-8.491424e+00	3.943768e+00
7.523257866561411e-04	-3.995700e+00	-8.583312e+00	3.995254e+00
7.785534652275698e-04	-3.935335e+00	-8.464399e+00	3.941941e+00
8.047811437989984e-04	-3.770240e+00	-8.134685e+00	3.783828e+00
8.310088223704270e-04	-3.500414e+00	-7.594170e+00	3.520915e+00
8.572365009418555e-04	-3.125858e+00	-6.842854e+00	3.153202e+00
8.695132866561412e-04	-2.920631e+00	-6.430872e+00	2.950768e+00
8.817900723704270e-04	-2.701537e+00	-5.990232e+00	2.734278e+00
8.940668580847128e-04	-2.468574e+00	-5.520933e+00	2.503730e+00
9.063436437989985e-04	-2.221743e+00	-5.022977e+00	2.259126e+00
9.186204295132842e-04	-1.961043e+00	-4.496363e+00	2.000464e+00
9.308972152275699e-04	-1.686476e+00	-3.941091e+00	1.727747e+00
9.431740009418556e-04	-1.398041e+00	-3.357161e+00	1.440972e+00
9.493123937989984e-04	-1.251935e+00	-3.061579e+00	1.295537e+00
9.554507866561413e-04	-1.104522e+00	-2.761666e+00	1.148814e+00
9.615891795132841e-04	-9.557998e-01	-2.457422e+00	1.000803e+00
9.677275723704270e-04	-8.057698e-01	-2.148846e+00	8.515041e-01
9.738659652275698e-04	-6.544317e-01	-1.835938e+00	7.009172e-01
9.800043580847127e-04	-5.017853e-01	-1.518698e+00	5.490423e-01
9.861427509418555e-04	-3.478308e-01	-1.197127e+00	3.958795e-01
9.900490009418555e-04	-2.499330e-01	-9.871765e-01	2.989240e-01
9.939552509418555e-04	-1.518846e-01	-7.692503e-01	2.028510e-01
9.978615009418555e-04	-5.374473e-02	-5.337735e-01	1.104943e-01
1.000077595798988e-03	1.950195e-03	-3.754518e-01	6.658573e-02
1.001260490686872e-03	3.167925e-02	-2.583494e-01	5.725305e-02
1.002220501228773e-03	5.580547e-02	-1.251840e-01	6.636602e-02
1.002614418860542e-03	6.570455e-02	-5.252348e-02	7.594029e-02
1.003143744582689e-03	7.900578e-02	6.499934e-02	9.239236e-02
1.003462621157784e-03	8.701830e-02	1.442104e-01	1.024912e-01
1.003857122650431e-03	9.693058e-02	2.504590e-01	1.147550e-01
1.004181799167483e-03	1.050880e-01	3.390268e-01	1.235944e-01
1.004465679833970e-03	1.122200e-01	4.106878e-01	1.288987e-01
1.004657420466017e-03	1.170370e-01	4.514377e-01	1.304596e-01
1.004740754567908e-03	1.191305e-01	4.652998e-01	1.304303e-01
1.004837414873585e-03	1.215588e-01	4.777583e-01	1.300538e-01
1.004940404117671e-03	1.241460e-01	4.883979e-01	1.297260e-01
1.005028815479845e-03	1.263669e-01	4.956463e-01	1.297108e-01
1.005128720736954e-03	1.288765e-01	5.022022e-01	1.301467e-01
1.005241334354192e-03	1.317053e-01	5.082818e-01	1.312204e-01
1.005369571354548e-03	1.349265e-01	5.140949e-01	1.331368e-01
1.005557691865792e-03	1.396516e-01	5.215469e-01	1.368064e-01
1.005743555710443e-03	1.443200e-01	5.282857e-01	1.410084e-01
1.005982747097098e-03	1.503274e-01	5.365027e-01	1.468216e-01
1.006267900725979e-03	1.574888e-01	5.460306e-01	1.539100e-01
1.007158813122065e-03	1.798599e-01	5.748509e-01	1.761838e-01
1.008251486425050e-03	2.072896e-01	6.089047e-01	2.035264e-01
1.010436833031021e-03	2.621183e-01	6.744589e-01	2.582270e-01
1.014343083031021e-03	3.599932e-01	7.872229e-01	3.559570e-01
1.018249333031021e-03	4.576514e-01	8.964204e-01	4.535375e-01
1.026061833031021e-03	6.520820e-01	1.107489e+00	6.478825e-01
1.033874333031021e-03	8.460645e-01	1.312307e+00	8.418293e-01
1.041686833031021e-03	1.036882e+00	1.512750e+00	1.032626e+00
1.049499333031021e-03	1.224535e+00	1.708816e+00	1.220271e+00
1.057311833031021e-03	1.409023e+00	1.900507e+00	1.404767e+00
1.065124333031021e-03	1.590346e+00	2.087822e+00	1.586111e+00
1.072936833031021e-03	1.768504e+00	2.270761e+00	1.764305e+00
1.080749333031021e-03	1.943497e+00	2.449324e+00	1.939349e+00
1.095258261602450e-03	2.259020e+00	2.771346e+00	2.254992e+00
1.109767190173878e-03	2.550329e+00	3.068427e+00	2.546449e+00
1.124276118745307e-03	2.817424e+00	3.340567e+00	2.813722e+00
1.138785047316736e-03	3.060305e+00	3.587766e+00	3.056810e+00
1.153293975888164e-03	3.278972e+00	3.810024e+00	3.275714e+00
1.167802904459593e-03	3.473425e+00	4.007341e+00	3.470432e+00
1.182311833031021e-03	3.643664e+00	4.179717e+00	3.640965e+00
1.207423440173878e-03	3.855585e+00	4.394914e+00	3.853476e+00
1.232535047316735e-03	3.971566e+00	4.512951e+00	3.970055e+00
1.257646654459593e-03	3.991607e+00	4.533828e+00	3.990703e+00
1.282758261602450e-03	3.915710e+00	4.457545e+00	3.915419e+00
1.307869868745307e-03	3.743873e+00	4.284102e+00	3.744204e+00
1.332981475888164e-03	3.476096e+00	4.013500e+00	3.477057e+00
1.358093083031021e-03	3.112380e+00	3.645737e+00	3.113979e+00
1.370369868745307e-03	2.905885e+00	3.436893e+00	2.907763e+00
1.382646654459593e-03	2.685625e+00	3.213388e+00	2.687763e+00
1.394923440173879e-03	2.451600e+00	2.975222e+00	2.453980e+00
1.407200225888164e-03	2.203810e+00	2.722395e+00	2.206414e+00
1.419477011602450e-03	1.942255e+00	2.454908e+00	1.945065e+00
1.431753797316736e-03	1.666935e+00	2.172759e+00	1.669932e+00
1.444030583031021e-03	1.377850e+00	1.875950e+00	1.381017e+00
1.449052904459593e-03	1.258380e+00	1.752971e+00	1.261610e+00
1.454075225888164e-03	1.137960e+00	1.628140e+00	1.141245e+00
1.459097547316736e-03	1.016589e+00	1.501456e+00	1.019921e+00
1.464119868745307e-03	8.942681e-01	1.372920e+00	8.976389e-01
1.469142190173879e-03	7.709966e-01	1.242531e+00	7.743982e-01
1.474164511602450e-03	6.467746e-01	1.110290e+00	6.501992e-01
1.479186833031022e-03	5.216023e-01	9.761961e-01	5.250416e-01
1.483093083031022e-03	4.241185e-01	8.693537e-01	4.275481e-01
1.486999333031022e-03	3.263792e-01	7.596774e-01	3.297716e-01
1.490905583031022e-03	2.284433e-01	6.451532e-01	2.317362e-01
1.494811833031022e-03	1.303698e-01	5.185542e-01	1.333267e-01
1.498718083031022e-03	3.221774e-02	3.612742e-01	3.373536e-02
1.500579063659310e-03	-1.455342e-02	2.380320e-01	-1.609638e-02
1.501971561634438e-03	-4.954948e-02	6.644207e-02	-5.667430e-02
1.503226139770849e-03	-8.107618e-02	-1.761035e-01	-9.448056e-02
1.503915585663757e-03	-9.839948e-02	-3.483123e-01	-1.106185e-01
1.504296173421291e-03	-1.079615e-01	-4.508180e-01	-1.078190e-01
1.504659113039853e-03	-1.170796e-01	-5.414131e-01	-8.686364e-02
1.504844530688782e-03	-1.217375e-01	-5.797601e-01	-6.675619e-02
1.505074413332389e-03	-1.275123e-01	-6.174098e-01	-3.512235e-02
1.505283321400409e-03	-1.327600e-01	-6.451278e-01	-6.263146e-03
1.505503629609299e-03	-1.382937e-01	-6.689103e-01	2.122236e-02
1.505758554128159e-03	-1.446967e-01	-6.919182e-01	4.762876e-02
1.506072071626931e-03	-1.525708e-01	-7.162039e-01	7.286071e-02
1.506439095275117e-03	-1.617880e-01	-7.413133e-01	9.451801e-02
1.506969154892991e-03	-1.750980e-01	-7.745785e-01	1.174216e-01
1.507403148970167e-03	-1.859943e-01	-8.004622e-01	1.321179e-01
1.507881730408117e-03	-1.980085e-01	-8.281710e-01	1.459663e-01
1.509924342560591e-03	-2.492643e-01	-9.428631e-01	1.993967e-01
1.517409148862908e-03	-4.366676e-01	-1.345176e+00	3.888388e-01
1.525779684577194e-03	-6.464836e-01	-1.780998e+00	5.995287e-01
1.534150220291479e-03	-8.531094e-01	-2.208357e+00	8.070469e-01
1.542520756005765e-03	-1.056545e+00	-2.627253e+00	1.011393e+00
1.550891291720051e-03	-1.256790e+00	-3.037687e+00	1.212568e+00
1.559261827434337e-03	-1.453845e+00	-3.439659e+00	1.410571e+00
1.567632363148623e-03	-1.647710e+00	-3.833168e+00	1.605402e+00
1.576002898862908e-03	-1.838384e+00	-4.218214e+00	1.797062e+00
1.589953791720051e-03	-2.147247e+00	-4.843253e+00	2.107992e+00
1.603904684577194e-03	-2.434594e+00	-5.424585e+00	2.397638e+00
1.617855577434337e-03	-2.700426e+00	-5.962209e+00	2.665998e+00
1.631806470291480e-03	-2.944743e+00	-6.456126e+00	2.913074e+00
1.645757363148623e-03	-3.167544e+00	-6.906335e+00	3.138864e+00
1.659708256005765e-03	-3.368830e+00	-7.312837e+00	3.343369e+00
1.673659148862908e-03	-3.548601e+00	-7.675631e+00	3.526589e+00
1.699886827434337e-03	-3.802361e+00	-8.188985e+00	3.787609e+00
1.726114506005765e-03	-3.951391e+00	-8.491541e+00	3.943830e+00
1.752342184577194e-03	-3.995692e+00	-8.583298e+00	3.995251e+00
1.778569863148623e-03	-3.935263e+00	-8.464256e+00	3.941874e+00
1.804797541720051e-03	-3.770105e+00	-8.134416e+00	3.783698e+00
1.831025220291480e-03	-3.500218e+00	-7.593776e+00	3.520723e+00
1.857252898862908e-03	-3.125601e+00	-6.842338e+00	3.152949e+00
1.869529684577194e-03	-2.920350e+00	-6.430306e+00	2.950490e+00
1.881806470291480e-03	-2.701233e+00	-5.989620e+00	2.733977e+00
1.894083256005766e-03	-2.468250e+00	-5.520280e+00	2.503409e+00
1.906360041720051e-03	-2.221400e+00	-5.022286e+00	2.258786e+00
1.918636827434337e-03	-1.960684e+00	-4.495637e+00	2.000108e+00
1.930913613148623e-03	-1.686103e+00	-3.940334e+00	1.727375e+00
1.943190398862908e-03	-1.397655e+00	-3.356377e+00	1.440588e+00
1.949328791720051e-03	-1.251544e+00	-3.060785e+00	1.295147e+00
1.955467184577194e-03	-1.104126e+00	-2.760861e+00	1.148419e+00
1.961605577434337e-03	-9.553996e-01	-2.456605e+00	1.000404e+00
1.967743970291480e-03	-8.053661e-01	-2.148016e+00	8.511022e-01
1.973882363148623e-03	-6.540251e-01	-1.835095e+00	7.005127e-01
1.980020756005766e-03	-5.013764e-01	-1.517841e+00	5.486360e-01
1.986159148862908e-03	-3.474202e-01	-1.196255e+00	3.954720e-01
1.990065398862908e-03	-2.495216e-01	-9.862835e-01	2.985178e-01
1.993971648862908e-03	-1.514728e-01	-7.683052e-01	2.024525e-01
1.997877898862908e-03	-5.333264e-02	-5.326546e-01	1.101426e-01
2.000093188511580e-03	2.342083e-03	-3.740683e-01	6.637823e-02
2.001272748671182e-03	3.198732e-02	-2.567681e-01	5.729728e-02
2.002235123808995e-03	5.617294e-02	-1.225353e-01	6.670599e-02
2.002628395035060e-03	6.605577e-02	-4.963942e-02	7.634340e-02
2.003155894497901e-03	7.931108e-02	6.797344e-02	9.277812e-02
2.003477115805113e-03	8.738250e-02	1.480269e-01	1.029522e-01
2.003870196420583e-03	9.725906e-02	2.540830e-01	1.151464e-01
2.004191353502538e-03	1.053280e-01	3.415736e-01	1.238105e-01
2.004476637096380e-03	1.124953e-01	4.132936e-01	1.290442e-01
2.004658601572490e-03	1.170667e-01	4.517366e-01	1.304694e-01
2.004739697512222e-03	1.191040e-01	4.651509e-01	1.304269e-01
2.004838420552503e-03	1.215840e-01	4.778517e-01	1.300440e-01
2.004942348592877e-03	1.241948e-01	4.885590e-01	1.297216e-01
2.005032560169926e-03	1.264610e-01	4.959114e-01	1.297190e-01
2.005133353746376e-03	1.289929e-01	5.024772e-01	1.301786e-01
2.005246309072802e-03	1.318302e-01	5.085267e-01	1.312821e-01
2.005376509906214e-03	1.351007e-01	5.143873e-01	1.332577e-01
2.005567354139537e-03	1.398943e-01	5.219088e-01	1.370141e-01
2.005753300620200e-03	1.445647e-01	5.286285e-01	1.412383e-01
2.005995509574586e-03	1.506480e-01	5.369342e-01	1.471367e-01
2.006281068382870e-03	1.578195e-01	5.464661e-01	1.542386e-01
2.007192532888367e-03	1.807065e-01	5.759217e-01	1.770273e-01
2.008312502006932e-03	2.088210e-01	6.107774e-01	2.050535e-01
2.010552440244063e-03	2.650175e-01	6.778740e-01	2.611207e-01
2.014458690244063e-03	3.628869e-01	7.905065e-01	3.588477e-01
2.018364940244063e-03	4.605377e-01	8.996055e-01	4.564220e-01
2.026177440244063e-03	6.549484e-01	1.110560e+00	6.507481e-01
2.033989940244063e-03	8.489040e-01	1.315312e+00	8.446682e-01
2.041802440244063e-03	1.039688e+00	1.515687e+00	1.035431e+00
2.049614940244063e-03	1.227301e+00	1.711687e+00	1.223037e+00
2.057427440244063e-03	1.411742e+00	1.903310e+00	1.407486e+00
2.065239940244063e-03	1.593011e+00	2.090558e+00	1.588777e+00
2.073052440244063e-03	1.771109e+00	2.273429e+00	1.766912e+00
2.080864940244063e-03	1.946036e+00	2.451924e+00	1.941889e+00
2.095373868815492e-03	2.261416e+00	2.773793e+00	2.257389e+00
2.109882797386920e-03	2.552566e+00	3.070706e+00	2.548688e+00
2.124391725958349e-03	2.819486e+00	3.342663e+00	2.815785e+00
2.138900654529778e-03	3.062175e+00	3.589665e+00	3.058682e+00
2.153409583101206e-03	3.280634e+00	3.811710e+00	3.277378e+00
2.167918511672635e-03	3.474863e+00	4.008799e+00	3.471872e+00
2.182427440244063e-03	3.644862e+00	4.180933e+00	3.642166e+00
2.207539047386920e-03	3.856324e+00	4.395666e+00	3.854218e+00
2.232650654529778e-03	3.971855e+00	4.513247e+00	3.970347e+00
2.257762261672635e-03	3.991456e+00	4.533678e+00	3.990554e+00
2.282873868815492e-03	3.915126e+00	4.456957e+00	3.914839e+00
2.307985475958349e-03	3.742866e+00	4.283085e+00	3.743200e+00
2.333097083101206e-03	3.474675e+00	4.012062e+00	3.475639e+00
2.358208690244063e-03	3.110554e+00	3.643888e+00	3.112156e+00
2.370485475958349e-03	2.903888e+00	3.434870e+00	2.905769e+00
2.382762261672635e-03	2.683471e+00	3.211203e+00	2.685612e+00
2.395039047386921e-03	2.449303e+00	2.972887e+00	2.451686e+00
2.407315833101206e-03	2.201385e+00	2.719922e+00	2.203991e+00
2.419592618815492e-03	1.939715e+00	2.452308e+00	1.942527e+00
2.431869404529778e-03	1.664294e+00	2.170045e+00	1.667293e+00
2.444146190244063e-03	1.375122e+00	1.873133e+00	1.378290e+00
2.449168511672635e-03	1.255622e+00	1.750120e+00	1.258853e+00
2.454190833101206e-03	1.135174e+00	1.625251e+00	1.138460e+00
2.459213154529778e-03	1.013779e+00	1.498526e+00	1.017112e+00
2.464235475958349e-03	8.914360e-01	1.369945e+00	8.948075e-01
2.469257797386921e-03	7.681454e-01	1.239507e+00	7.715476e-01
2.474280118815492e-03	6.439072e-01	1.107214e+00	6.473320e-01
2.479302440244063e-03	5.187214e-01	9.730653e-01	5.221608e-01
2.483208690244063e-03	4.212292e-01	8.661544e-01	4.246583e-01
2.487114940244064e-03	3.234832e-01	7.563727e-01	3.268739e-01
2.491021190244064e-03	2.255424e-01	6.416464e-01	2.288306e-01
2.494927440244064e-03	1.274658e-01	5.143573e-01	1.304012e-01
2.498833690244064e-03	2.931230e-02	3.548862e-01	3.071477e-02
2.500658989354237e-03	-1.656216e-02	2.305588e-01	-1.833134e-02
