v1	V(vo1)	V(vo2)
-1.000000000000000e+01	-9.996410e+00	8.495568e+00
-9.900000000000000e+00	-9.996399e+00	8.495568e+00
-9.800000000000001e+00	-9.996388e+00	8.495568e+00
-9.700000000000001e+00	-9.996378e+00	8.495568e+00
-9.600000000000001e+00	-9.996367e+00	8.495568e+00
-9.500000000000002e+00	-9.996356e+00	8.495568e+00
-9.400000000000002e+00	-9.996346e+00	8.495568e+00
-9.300000000000002e+00	-9.996335e+00	8.495568e+00
-9.200000000000003e+00	-9.996325e+00	8.495568e+00
-9.100000000000003e+00	-9.996313e+00	8.495568e+00
-9.000000000000004e+00	-9.996303e+00	8.495568e+00
-8.900000000000004e+00	-9.996292e+00	8.495568e+00
-8.800000000000004e+00	-9.996282e+00	8.495568e+00
-8.700000000000005e+00	-9.996270e+00	8.495568e+00
-8.600000000000005e+00	-9.996260e+00	8.495568e+00
-8.500000000000005e+00	-9.996249e+00	8.495568e+00
-8.400000000000006e+00	-9.996239e+00	8.495568e+00
-8.300000000000006e+00	-9.996227e+00	8.495568e+00
-8.200000000000006e+00	-9.996217e+00	8.495568e+00
-8.100000000000007e+00	-9.996206e+00	8.495568e+00
-8.000000000000007e+00	-9.996195e+00	8.495568e+00
-7.900000000000007e+00	-9.996184e+00	8.495568e+00
-7.800000000000008e+00	-9.996174e+00	8.495568e+00
-7.700000000000008e+00	-9.996163e+00	8.495568e+00
-7.600000000000009e+00	-9.996152e+00	8.495568e+00
-7.500000000000009e+00	-9.996141e+00	8.495568e+00
-7.400000000000009e+00	-9.996131e+00	8.495568e+00
-7.300000000000010e+00	-9.996119e+00	8.495568e+00
-7.200000000000010e+00	-9.996109e+00	8.495568e+00
-7.100000000000010e+00	-9.996099e+00	8.495568e+00
-7.000000000000011e+00	-9.996087e+00	8.495568e+00
-6.900000000000011e+00	-9.996077e+00	8.495568e+00
-6.800000000000011e+00	-9.996066e+00	8.495567e+00
-6.700000000000012e+00	-9.996055e+00	8.495567e+00
-6.600000000000012e+00	-9.996044e+00	8.495567e+00
-6.500000000000012e+00	-9.996033e+00	8.495567e+00
-6.400000000000013e+00	-9.996022e+00	8.495567e+00
-6.300000000000013e+00	-9.996012e+00	8.495567e+00
-6.200000000000014e+00	-9.996000e+00	8.495567e+00
-6.100000000000014e+00	-9.995990e+00	8.495567e+00
-6.000000000000014e+00	-9.995979e+00	8.495567e+00
-5.900000000000015e+00	-9.995968e+00	8.495567e+00
-5.800000000000015e+00	-9.995957e+00	8.495567e+00
-5.700000000000015e+00	-9.995946e+00	8.495567e+00
-5.600000000000016e+00	-9.995935e+00	8.495567e+00
-5.500000000000016e+00	-9.995925e+00	8.495567e+00
-5.400000000000016e+00	-9.995914e+00	8.495567e+00
-5.300000000000017e+00	-9.995903e+00	8.495567e+00
-5.200000000000017e+00	-9.995892e+00	8.495567e+00
-5.100000000000017e+00	-9.995881e+00	8.495567e+00
-5.000000000000018e+00	-9.995870e+00	8.495567e+00
-4.900000000000018e+00	-9.995859e+00	8.495567e+00
-4.800000000000018e+00	-9.995848e+00	8.495567e+00
-4.700000000000019e+00	-9.995837e+00	8.495567e+00
-4.600000000000019e+00	-9.995827e+00	8.495567e+00
-4.500000000000020e+00	-9.995815e+00	8.495567e+00
-4.400000000000020e+00	-9.995805e+00	8.495567e+00
-4.300000000000020e+00	-9.995793e+00	8.495567e+00
-4.200000000000021e+00	-9.995777e+00	8.495567e+00
-4.100000000000021e+00	-9.995505e+00	8.495567e+00
-4.000000000000021e+00	-9.987542e+00	8.495567e+00
-3.900000000000021e+00	-9.916203e+00	8.495562e+00
-3.800000000000021e+00	-9.723584e+00	8.495548e+00
-3.700000000000021e+00	-9.523602e+00	8.495533e+00
-3.600000000000021e+00	-9.323609e+00	8.495519e+00
-3.500000000000021e+00	-9.123621e+00	8.495503e+00
-3.400000000000021e+00	-8.923632e+00	8.495489e+00
-3.300000000000021e+00	-8.723643e+00	8.495474e+00
-3.200000000000021e+00	-8.523655e+00	8.495460e+00
-3.100000000000021e+00	-8.323666e+00	8.495445e+00
-3.000000000000020e+00	-8.123677e+00	8.495430e+00
-2.900000000000020e+00	-7.923688e+00	8.495416e+00
-2.800000000000020e+00	-7.723700e+00	8.495400e+00
-2.700000000000020e+00	-7.523711e+00	8.495386e+00
-2.600000000000020e+00	-7.323722e+00	8.495371e+00
-2.500000000000020e+00	-7.123733e+00	8.495357e+00
-2.400000000000020e+00	-6.923744e+00	8.495337e+00
-2.300000000000020e+00	-6.723714e+00	8.495160e+00
-2.200000000000020e+00	-6.522241e+00	8.489248e+00
-2.100000000000020e+00	-6.298126e+00	8.392879e+00
-2.000000000000020e+00	-5.999668e+00	7.998985e+00
-1.900000000000019e+00	-5.699698e+00	7.599036e+00
-1.800000000000019e+00	-5.399728e+00	7.199086e+00
-1.700000000000019e+00	-5.099758e+00	6.799137e+00
-1.600000000000019e+00	-4.799788e+00	6.399187e+00
-1.500000000000019e+00	-4.499817e+00	5.999238e+00
-1.400000000000019e+00	-4.199847e+00	5.599288e+00
-1.300000000000019e+00	-3.899877e+00	5.199339e+00
-1.200000000000019e+00	-3.599907e+00	4.799390e+00
-1.100000000000019e+00	-3.299937e+00	4.399441e+00
-1.000000000000019e+00	-2.999967e+00	3.999491e+00
-9.000000000000187e-01	-2.699996e+00	3.599542e+00
-8.000000000000187e-01	-2.400027e+00	3.199593e+00
-7.000000000000187e-01	-2.100056e+00	2.799644e+00
-6.000000000000187e-01	-1.800086e+00	2.399694e+00
-5.000000000000188e-01	-1.500116e+00	1.999745e+00
-4.000000000000188e-01	-1.200146e+00	1.599796e+00
-3.000000000000188e-01	-9.001765e-01	1.199847e+00
-2.000000000000188e-01	-6.002066e-01	7.998981e-01
-1.000000000000188e-01	-3.002366e-01	3.999490e-01
-1.879052469178077e-14	-2.666963e-04	-1.092106e-08
9.999999999998122e-02	2.997032e-01	-3.999490e-01
1.999999999999812e-01	5.996731e-01	-7.998980e-01
2.999999999999812e-01	8.996429e-01	-1.199847e+00
3.999999999999813e-01	1.199613e+00	-1.599796e+00
4.999999999999812e-01	1.499583e+00	-1.999745e+00
5.999999999999812e-01	1.799552e+00	-2.399694e+00
6.999999999999812e-01	2.099522e+00	-2.799643e+00
7.999999999999812e-01	2.399492e+00	-3.199591e+00
8.999999999999811e-01	2.699462e+00	-3.599540e+00
9.999999999999811e-01	2.999432e+00	-3.999489e+00
1.099999999999981e+00	3.299401e+00	-4.399438e+00
1.199999999999981e+00	3.599371e+00	-4.799387e+00
1.299999999999981e+00	3.899341e+00	-5.199336e+00
1.399999999999981e+00	4.199310e+00	-5.599284e+00
1.499999999999982e+00	4.499280e+00	-5.999233e+00
1.599999999999982e+00	4.799250e+00	-6.399181e+00
1.699999999999982e+00	5.099219e+00	-6.799130e+00
1.799999999999982e+00	5.399189e+00	-7.199079e+00
1.899999999999982e+00	5.699158e+00	-7.599027e+00
1.999999999999982e+00	5.999128e+00	-7.998976e+00
2.099999999999982e+00	6.299098e+00	-8.398925e+00
2.199999999999982e+00	6.599067e+00	-8.798873e+00
2.299999999999982e+00	6.899036e+00	-9.198821e+00
2.399999999999982e+00	7.199006e+00	-9.598770e+00
2.499999999999982e+00	7.486259e+00	-9.947817e+00
2.599999999999982e+00	7.697486e+00	-9.992641e+00
2.699999999999982e+00	7.898131e+00	-9.995268e+00
2.799999999999983e+00	8.098160e+00	-9.995441e+00
2.899999999999983e+00	8.298036e+00	-9.995320e+00
2.999999999999983e+00	8.458650e+00	-9.995318e+00
3.099999999999983e+00	8.492343e+00	-9.995318e+00
3.199999999999983e+00	8.494942e+00	-9.995318e+00
3.299999999999983e+00	8.494986e+00	-9.995318e+00
3.399999999999983e+00	8.494853e+00	-9.995318e+00
3.499999999999983e+00	8.494852e+00	-9.995318e+00
3.599999999999983e+00	8.494852e+00	-9.995318e+00
3.699999999999983e+00	8.494852e+00	-9.995318e+00
3.799999999999983e+00	8.494852e+00	-9.995318e+00
3.899999999999983e+00	8.494852e+00	-9.995318e+00
3.999999999999984e+00	8.494852e+00	-9.995318e+00
4.099999999999984e+00	8.494852e+00	-9.995318e+00
4.199999999999983e+00	8.494852e+00	-9.995318e+00
4.299999999999983e+00	8.494852e+00	-9.995318e+00
4.399999999999983e+00	8.494852e+00	-9.995318e+00
4.499999999999982e+00	8.494852e+00	-9.995318e+00
4.599999999999982e+00	8.494852e+00	-9.995318e+00
4.699999999999982e+00	8.494852e+00	-9.995318e+00
4.799999999999981e+00	8.494852e+00	-9.995318e+00
4.899999999999981e+00	8.494852e+00	-9.995318e+00
4.999999999999980e+00	8.494852e+00	-9.995318e+00
5.099999999999980e+00	8.494852e+00	-9.995318e+00
5.199999999999980e+00	8.494852e+00	-9.995318e+00
5.299999999999979e+00	8.494852e+00	-9.995318e+00
5.399999999999979e+00	8.494852e+00	-9.995318e+00
5.499999999999979e+00	8.494852e+00	-9.995318e+00
5.599999999999978e+00	8.494852e+00	-9.995318e+00
5.699999999999978e+00	8.494852e+00	-9.995318e+00
5.799999999999978e+00	8.494852e+00	-9.995318e+00
5.899999999999977e+00	8.494852e+00	-9.995318e+00
5.999999999999977e+00	8.494852e+00	-9.995318e+00
6.099999999999977e+00	8.494852e+00	-9.995318e+00
6.199999999999976e+00	8.494852e+00	-9.995318e+00
6.299999999999976e+00	8.494852e+00	-9.995318e+00
6.399999999999975e+00	8.494852e+00	-9.995318e+00
6.499999999999975e+00	8.494852e+00	-9.995318e+00
6.599999999999975e+00	8.494852e+00	-9.995318e+00
6.699999999999974e+00	8.494852e+00	-9.995318e+00
6.799999999999974e+00	8.494852e+00	-9.995318e+00
6.899999999999974e+00	8.494852e+00	-9.995318e+00
6.999999999999973e+00	8.494852e+00	-9.995318e+00
7.099999999999973e+00	8.494852e+00	-9.995318e+00
7.199999999999973e+00	8.494852e+00	-9.995318e+00
7.299999999999972e+00	8.494852e+00	-9.995318e+00
7.399999999999972e+00	8.494852e+00	-9.995318e+00
7.499999999999972e+00	8.494852e+00	-9.995318e+00
7.599999999999971e+00	8.494852e+00	-9.995318e+00
7.699999999999971e+00	8.494852e+00	-9.995318e+00
7.799999999999971e+00	8.494852e+00	-9.995318e+00
7.899999999999970e+00	8.494852e+00	-9.995318e+00
7.999999999999970e+00	8.494852e+00	-9.995318e+00
8.099999999999969e+00	8.494852e+00	-9.995318e+00
8.199999999999969e+00	8.494852e+00	-9.995318e+00
8.299999999999969e+00	8.494852e+00	-9.995318e+00
8.399999999999968e+00	8.494852e+00	-9.995318e+00
8.499999999999968e+00	8.494852e+00	-9.995318e+00
8.599999999999968e+00	8.494852e+00	-9.995318e+00
8.699999999999967e+00	8.494852e+00	-9.995318e+00
8.799999999999967e+00	8.494852e+00	-9.995318e+00
8.899999999999967e+00	8.494852e+00	-9.995318e+00
8.999999999999966e+00	8.494852e+00	-9.995318e+00
9.099999999999966e+00	8.494852e+00	-9.995318e+00
9.199999999999966e+00	8.494852e+00	-9.995318e+00
9.299999999999965e+00	8.494852e+00	-9.995318e+00
9.399999999999965e+00	8.494852e+00	-9.995318e+00
9.499999999999964e+00	8.494852e+00	-9.995318e+00
9.599999999999964e+00	8.494852e+00	-9.995318e+00
9.699999999999964e+00	8.494852e+00	-9.995318e+00
9.799999999999963e+00	8.494852e+00	-9.995318e+00
9.899999999999963e+00	8.494852e+00	-9.995318e+00
1.000000000000000e+01	8.494852e+00	-9.995318e+00
